!Keysight Technologies N9918A: A.12.56
!Date: Monday, 07 July 2025 03:44:53
!TimeZone: (UTC-08:00) Pacific Time (US & Canada)!Model: N9918A
!Serial: MY56072139
!GPS Latitude: 
!GPS Longitude: 
!GPS TimeStamp: 0001-01-01 00:00:00Z
!GPS Seconds Since Last Read: 0
!CHECKSUM:0388773764
!Correction: S11(Rdy)
!S1P File: Measurement: S11:
# Hz S DB R 50
1000000	-0.244145448828418	23.8366063456936
1145000	-0.232310858501048	19.8530307432471
1290000	-0.227026898663862	16.5280602444379
1435000	-0.225585550605925	13.7019658763057
1580000	-0.224558608675426	11.1973613999789
1725000	-0.223984606527111	8.92189500405595
1870000	-0.229463971906844	6.74664199567193
2015000	-0.252136608538429	4.50902205683052
2160000	-0.390751596815453	3.37771065058014
2305000	-0.334705184326914	1.24406351630877
2450000	-0.440827875875141	-0.767210124751126
2595000	-0.715638777142589	-3.31914450318359
2740000	-1.0715811350001	-2.79306283772025
2885000	-0.956784008635877	-3.2623270635744
3030000	-0.981524486216884	-6.08784974112767
3175000	-1.40760154398446	-10.4062487366066
3320000	-2.816229522218	-14.2287031093761
3465000	-5.50088158643917	-1.20549328566761
3610000	-2.8030942213733	20.5658117759887
3755000	-0.791249121289805	13.7687973526863
3900000	-0.331084437134569	7.66169072798239
4045000	-0.236639875746994	4.02228419120299
4190000	-0.206058924089422	1.54942758538569
4335000	-0.198863179790437	-0.327646081997968
4480000	-0.197902768781033	-1.87366232523115
4625000	-0.203047739831886	-3.25035617230904
4770000	-0.209478628931063	-4.52114158891972
4915000	-0.223006497695146	-5.68852058313098
5060000	-0.24411836348823	-6.7879452808222
5205000	-0.276717292130106	-7.81729067995989
5350000	-0.303972484647196	-8.63796471580147
5495000	-0.302366983695588	-9.55261404612212
5640000	-0.329414178960769	-10.5611449583694
5785000	-0.368998664406563	-11.4189940080854
5930000	-0.402630135533068	-12.1733730582319
6075000	-0.421019994783287	-12.8297184854072
6220000	-0.426996757319085	-13.5123075180228
6365000	-0.41787120765131	-14.2174070218035
6510000	-0.404074564721405	-15.0013239411128
6655000	-0.389013829003322	-15.8458059800035
6800000	-0.369434215796801	-16.7767707254179
6945000	-0.354828552140897	-17.7477938002138
7090000	-0.335401328700147	-18.7695814504826
7235000	-0.316138639106028	-19.8460591146105
7380000	-0.299253336427363	-21.0192549283801
7525000	-0.282862732770703	-22.2110077067401
7670000	-0.267071658852563	-23.5032988317055
7815000	-0.255014257162029	-24.8840730748726
7960000	-0.244258536944505	-26.3385424886167
8105000	-0.235861386972555	-27.8545984665713
8250000	-0.228841949535808	-29.4863106298442
8395000	-0.225270804591274	-31.2044914407835
8540000	-0.229988329396407	-33.047909988097
8685000	-0.217244381976395	-34.8543900239109
8830000	-0.214240523113016	-37.0101355047631
8975000	-0.218368700715648	-39.2591717113569
9120000	-0.220680331635163	-41.696264347497
9265000	-0.227221694396659	-44.3093627918697
9410000	-0.239587253181732	-47.1455543729944
9555000	-0.250522595903526	-50.2266487840217
9700000	-0.263933629815785	-53.6364740270475
9845000	-0.279132642751574	-57.3694707278092
9990000	-0.29806373643919	-61.5149000755841
10135000	-0.31998846049705	-66.1279615531778
10280000	-0.351049417915874	-71.2845029104957
10425000	-0.389261062281213	-77.0603834356805
10570000	-0.433431868428231	-83.568605186657
10715000	-0.491086900873684	-90.8900104905674
10860000	-0.562395805113646	-99.1334302222553
11005000	-0.646939726445164	-108.442417657601
11150000	-0.744284480297236	-118.875303042677
11295000	-0.881015573632937	-130.51244036637
11440000	-1.01749177455839	-142.411187464561
11585000	-1.04045319906153	-156.055928534779
11730000	-1.10737322982741	-170.43565759255
11875000	-1.16975532370905	174.903501361681
12020000	-1.20842144500253	160.428823085919
12165000	-1.21878815945189	146.549056912706
12310000	-1.19990502707961	133.523498488389
12455000	-1.1724562154838	121.501800745785
12600000	-1.14972747578654	110.658242371585
12745000	-1.13379881275787	100.984316787009
12890000	-1.12730605307386	92.4856699636208
13035000	-1.11815544880557	85.0486694975964
13180000	-1.09587661299169	78.5681797573983
13325000	-1.06757841299743	72.7923872881017
13470000	-1.03692334959585	67.6217111734154
13615000	-1.01320445020794	62.9418313298234
13760000	-1.00144972141714	58.741853384218
13905000	-0.996795597820608	54.9357522910038
14050000	-1.00381339287277	51.5049421561501
14195000	-1.02872926342866	48.3897966800277
14340000	-1.0688970877266	45.7067902847691
14485000	-1.10625789461009	43.4531204028288
14630000	-1.11665469388618	41.4932537512574
14775000	-1.11027539273197	39.7012128645453
14920000	-1.09652464964043	38.0136372750331
15065000	-1.07971367415164	36.4000075371605
15210000	-1.07859527187055	34.9487579273555
15355000	-1.06677524929783	34.1359415307858
15500000	-0.896097769561076	32.79170736083
15645000	-0.840389171168743	30.9315927123615
15790000	-0.828883583305848	29.3103019022816
15935000	-0.835668352936552	27.8865229790499
16080000	-0.851663379209486	26.7103221251973
16225000	-0.853634824365497	25.7057397033717
16370000	-0.839156762307206	24.7843709904638
16515000	-0.80699464701542	23.8406962589243
16660000	-0.771763750959817	22.8147908910463
16805000	-0.742954224234905	21.724646730305
16950000	-0.726446185857933	20.624560499976
17095000	-0.723894172618156	19.5261236412226
17240000	-0.736590096091932	18.4506516865271
17385000	-0.761102425002764	17.4510705873144
17530000	-0.80029364798071	16.5212399872447
17675000	-0.847848552626298	15.7420015315417
17820000	-0.893932001359855	15.086385100114
17965000	-0.93389321437819	14.530513581728
18110000	-0.969017790518337	14.0964236636435
18255000	-0.981716572396155	13.7590947095131
18400000	-0.977364892165972	13.3617408312543
18545000	-0.962194843018754	12.9135944627551
18690000	-0.944688953922428	12.4024688511396
18835000	-0.927422167365927	11.8143259524008
18980000	-0.918639370308688	11.1872759543244
19125000	-0.916834288070835	10.5286771245786
19270000	-0.920577399119381	9.90682145914729
19415000	-0.927615806954601	9.26217696770753
19560000	-0.939452805018326	8.639785941969
19705000	-0.95714926211077	8.00014475962665
19850000	-0.982734643170897	7.33017824405097
19995000	-1.015922036392	6.68121021761568
20140000	-1.06117943732561	6.062052635049
20285000	-1.11403326760994	5.47259113795967
20430000	-1.17481951004921	4.92689383149107
20575000	-1.24790962398406	4.46832014312636
20720000	-1.32300982372632	4.09110134072708
20865000	-1.40169461793466	3.82388968546125
21010000	-1.4807089607846	3.67539789573681
21155000	-1.54323513450595	3.66450890867495
21300000	-1.58011173560977	3.71179159349272
21445000	-1.59306847751732	3.61029233311017
21590000	-1.61733977142807	3.36527991864908
21735000	-1.65253556512603	3.15943672748712
21880000	-1.69213183961638	2.96063959282829
22025000	-1.73118757085531	2.7334658117512
22170000	-1.78607620124371	2.50008125376844
22315000	-1.86370771073838	2.30836399289196
22460000	-1.95740487382537	2.31547712397642
22605000	-2.05443878306201	2.69909908013997
22750000	-2.0502902537712	3.26812840582549
22895000	-1.99147287627949	3.24092594318761
23040000	-2.02392003923209	2.89878163821221
23185000	-2.09371352093366	2.85965601508211
23330000	-2.13705584496169	3.08352990024838
23475000	-2.18751305429818	3.38509774504232
23620000	-2.22693412301275	3.72728295442373
23765000	-2.22598937576127	4.07800103193066
23910000	-2.21710877125233	4.29403423549023
24055000	-2.21171490123435	4.3860639181957
24200000	-2.23232225626933	4.40988612600123
24345000	-2.26938114780683	4.55330296445529
24490000	-2.33607436055499	4.95101872920839
24635000	-2.38942708763314	5.67102408153675
24780000	-2.40545543504705	6.72768760046331
24925000	-2.33807708709022	7.89110975286678
25070000	-2.19132415848733	8.74845612918883
25215000	-2.00008055332515	9.02615658039664
25360000	-1.85148885776828	8.99501192611177
25505000	-1.73723330601858	9.08499047758662
25650000	-1.63031731165529	8.91636028512104
25795000	-1.53020064687732	8.73791260814747
25940000	-1.42540936819749	8.49729724586501
26085000	-1.32772074490904	8.15976254435347
26230000	-1.2427606216318	7.72833582566908
26375000	-1.17097935378492	7.27135240978332
26520000	-1.11046464538497	6.78370778590286
26665000	-1.06352302433484	6.32391787113384
26810000	-1.02178314605001	5.8844165498228
26955000	-0.987544313706476	5.44270687722573
27100000	-0.956863330874574	5.01367906580527
27245000	-0.930578947049508	4.61574639668977
27390000	-0.905988566508622	4.23123219472754
27535000	-0.882402136311377	3.85880541155659
27680000	-0.861466862621349	3.49075475954426
27825000	-0.841263558676981	3.12944152883873
27970000	-0.820626661822131	2.78609330856854
28115000	-0.800841313439311	2.42275539476916
28260000	-0.781039704911437	2.05192713808541
28405000	-0.761769004472377	1.67554497778217
28550000	-0.74276043931134	1.27330503488585
28695000	-0.729233805029837	0.862842678985451
28840000	-0.713294334552428	0.417923665279198
28985000	-0.705445135445156	-0.0890798946245927
29130000	-0.709800216476422	-0.594789081862724
29275000	-0.724011384297121	-1.11108539410932
29420000	-0.751617644845388	-1.61618886347611
29565000	-0.786919913366372	-1.99531159745862
29710000	-0.821874802553946	-2.2974272266764
29855000	-0.854905073650884	-2.55440691370662
30000000	-0.882855804283542	-2.77573318844498
