!Keysight Technologies N9918A: A.12.56
!Date: Monday, 07 July 2025 03:49:24
!TimeZone: (UTC-08:00) Pacific Time (US & Canada)!Model: N9918A
!Serial: MY56072139
!GPS Latitude: 
!GPS Longitude: 
!GPS TimeStamp: 0001-01-01 00:00:00Z
!GPS Seconds Since Last Read: 0
!CHECKSUM:0028483289
!Correction: S11(Rdy)
!S1P File: Measurement: S11:
# Hz S DB R 50
1000000	-0.229506947851317	23.7145077360579
1145000	-0.217352018543193	19.6721753630182
1290000	-0.208259584466786	16.3115085128134
1435000	-0.203372912054012	13.4362433927794
1580000	-0.201603762672672	10.9102973349336
1725000	-0.198936648688185	8.59965679555876
1870000	-0.203419529886674	6.39444079127385
2015000	-0.222034766224322	4.12207475652955
2160000	-0.335587445917201	3.00234074425167
2305000	-0.311671273837355	0.541147225001103
2450000	-0.427577343191611	-1.46052859679495
2595000	-0.708821067658299	-4.16178261069212
2740000	-1.14246547411248	-3.49117105446396
2885000	-1.00205629516585	-3.58183885432797
3030000	-1.05347021935811	-6.4082405516642
3175000	-1.68359283388679	-10.622321394458
3320000	-3.89554016492368	-7.90594602902389
3465000	-2.62584158867304	14.5445742949271
3610000	-0.663692539425145	9.10730431563382
3755000	-0.282445627941911	3.56722972725766
3900000	-0.200802012618935	0.29515132072051
4045000	-0.200269819753584	-1.96175408834896
4190000	-0.205087704011391	-3.72425956665345
4335000	-0.21207154026106	-5.22081147017653
4480000	-0.219735457766253	-6.55258365894974
4625000	-0.22305376460935	-7.83448458671924
4770000	-0.233373126000143	-9.1245169143765
4915000	-0.257360406558042	-10.3054510214711
5060000	-0.291723140699679	-11.4989181796146
5205000	-0.338351704918016	-12.5880438861889
5350000	-0.372675589573419	-13.3711899071411
5495000	-0.363588483055848	-14.3848337012763
5640000	-0.402227050736972	-15.5504621016891
5785000	-0.453489897231427	-16.5065702134997
5930000	-0.49405948516128	-17.3164773480689
6075000	-0.511193280307666	-18.0751618337758
6220000	-0.506647002924844	-18.8893233709104
6365000	-0.492414953160275	-19.7918413520736
6510000	-0.469392694035778	-20.8030215715588
6655000	-0.44459811990753	-21.9377291382303
6800000	-0.424065607193052	-23.1557610715319
6945000	-0.402015071184635	-24.4255406346001
7090000	-0.379243879050339	-25.8171843343719
7235000	-0.355667690569962	-27.3026252407856
7380000	-0.334446691519209	-28.8991258918124
7525000	-0.31604789809302	-30.6295507285132
7670000	-0.298405980438787	-32.4396787383381
7815000	-0.283702636043831	-34.3852094966483
7960000	-0.270426766139696	-36.4769557978664
8105000	-0.260798927744256	-38.7349950480864
8250000	-0.254000215041166	-41.139678673201
8395000	-0.24959173680339	-43.7274011753144
8540000	-0.255128269716703	-46.5299120363191
8685000	-0.246865923868073	-49.516439517778
8830000	-0.248648225690818	-52.8553189561778
8975000	-0.256373130907787	-56.4788278620235
9120000	-0.265265380881201	-60.4322369250492
9265000	-0.27756193247602	-64.8003152634719
9410000	-0.295626749403679	-69.6055314604038
9555000	-0.315335975619002	-74.9518504205202
9700000	-0.338476123105605	-80.8870864607494
9845000	-0.367027520266896	-87.5097894214787
9990000	-0.402195657355313	-94.9095129786372
10135000	-0.446951486939652	-103.161680459863
10280000	-0.49926726193156	-112.362320062774
10425000	-0.56012018389598	-122.4967630046
10570000	-0.628114674862251	-133.584804158444
10715000	-0.694335565310598	-145.592824923528
10860000	-0.761305017691373	-158.359161591089
11005000	-0.827902525554535	-171.656979679719
11150000	-0.897534371206705	174.763753397078
11295000	-1.05600044804777	161.610791530142
11440000	-0.993652470890562	149.902430066088
11585000	-0.935918604089158	137.673012021055
11730000	-0.913539184644822	126.37952444837
11875000	-0.893328723133791	116.118260491281
12020000	-0.868938404451723	106.828051771778
12165000	-0.841213596117579	98.491180891208
12310000	-0.818892256879569	90.961520447519
12455000	-0.805648891052346	84.177675829111
12600000	-0.805701816204186	78.1111829969984
12745000	-0.821864144696628	72.691307531984
12890000	-0.843281805287543	67.9549793812267
13035000	-0.85833855845257	63.7593750863893
13180000	-0.859408924766552	59.9979114915377
13325000	-0.852699113836086	56.5706930682543
13470000	-0.843173251060782	53.3868570528548
13615000	-0.841615757660613	50.4177899820222
13760000	-0.849068019539193	47.6772306770239
13905000	-0.862493290412024	45.1408808054303
14050000	-0.882667529676032	42.7962240890503
14195000	-0.922720306026898	40.6443788430001
14340000	-0.97595073842969	38.8003348866514
14485000	-1.01986101483739	37.2769839257976
14630000	-1.03898862114909	35.9526489848789
14775000	-1.03860033037183	34.6943757681588
14920000	-1.02794638058594	33.4721821903387
15065000	-1.01941200839231	32.2782547616945
15210000	-1.02402086412054	31.1650543389108
15355000	-1.00969689450515	30.583162759002
15500000	-0.890670105987728	29.4651606619086
15645000	-0.846378058101871	28.0650196751286
15790000	-0.835924982679988	26.7754035817921
15935000	-0.842167601792213	25.6190627836774
16080000	-0.850179409373388	24.6522170502363
16225000	-0.851029442141565	23.7957835806169
16370000	-0.834248326809933	22.9796581969632
16515000	-0.804706904838752	22.1394487785219
16660000	-0.775838563423603	21.2022694353223
16805000	-0.754633029924085	20.1960086822214
16950000	-0.744286615180322	19.1674479847661
17095000	-0.752525212371198	18.1274861649955
17240000	-0.771786839886837	17.1352191761575
17385000	-0.807545046102371	16.1929610494332
17530000	-0.857553526524307	15.3398295952281
17675000	-0.91645012702579	14.6320452035809
17820000	-0.968423146391265	14.0647194906639
17965000	-1.0190331602647	13.5748939252199
18110000	-1.06153240067072	13.2020182247565
18255000	-1.07612151233302	12.9338081330299
18400000	-1.07646548856664	12.5661227501345
18545000	-1.0666774324871	12.1614403004746
18690000	-1.05401628300464	11.6662677966635
18835000	-1.04625899640862	11.0787622447786
18980000	-1.04760675754945	10.4400769769898
19125000	-1.05986842304146	9.79552930615277
19270000	-1.07994263363341	9.15740030790142
19415000	-1.10592408233614	8.54052615828653
19560000	-1.14237015901154	7.92728355224209
19705000	-1.18592907683499	7.32869362689043
19850000	-1.24112749060453	6.77457095104702
19995000	-1.30330105943507	6.26495603579185
20140000	-1.37419170564141	5.84105861549259
20285000	-1.44111759008683	5.47546452041204
20430000	-1.51295236033482	5.20413469058015
20575000	-1.58095917351642	4.97295187168255
20720000	-1.65077253433074	4.79077818133899
20865000	-1.71975204784744	4.69137017417185
21010000	-1.78797288055103	4.689224443892
21155000	-1.84041478560486	4.81784012467699
21300000	-1.86179005308704	4.96195198043452
21445000	-1.86340682712677	4.98138944060564
21590000	-1.86923927076873	4.7910749178415
21735000	-1.89189370041648	4.54172419617565
21880000	-1.928435237629	4.32857839268401
22025000	-1.97733251712309	4.08605326840385
22170000	-2.04736336415225	3.87946753742478
22315000	-2.13729419468459	3.8270191782689
22460000	-2.24704019527572	4.03076489979055
22605000	-2.33709028848561	4.75284560622101
22750000	-2.31181445530397	5.64548669619314
22895000	-2.22704401783537	5.76986504070728
23040000	-2.21981627319258	5.5315884823697
23185000	-2.25911441959477	5.51268696685155
23330000	-2.29257697400103	5.71341348100779
23475000	-2.31359151780895	6.01107442720067
23620000	-2.31488808708437	6.34206617072561
23765000	-2.30527020308121	6.6045618015037
23910000	-2.29175838400079	6.74706464750215
24055000	-2.29684300559727	6.81159915983734
24200000	-2.33540590901143	6.93339326399821
24345000	-2.402557002197	7.3251772156475
24490000	-2.4664740416106	8.21673297818841
24635000	-2.47029505189017	9.64797751049516
24780000	-2.33110502184567	11.2478706826091
24925000	-2.06163517729057	12.1670691523863
25070000	-1.78825772716852	12.1222208345646
25215000	-1.59033295376037	11.5337683865044
25360000	-1.452962223264	10.8589574987842
25505000	-1.3563687012383	10.177940930138
25650000	-1.28135095061958	9.56095565078362
25795000	-1.22489318824768	8.98470224802256
25940000	-1.18384990155102	8.47003747561274
26085000	-1.14734505574323	8.02523174816782
26230000	-1.11157756551962	7.62031137887585
26375000	-1.07658631834406	7.22801159578657
26520000	-1.0435991447362	6.83139892767492
26665000	-1.01536964583459	6.45485067170883
26810000	-0.988134469457654	6.07538816723731
26955000	-0.963304596614589	5.68619958850936
27100000	-0.942768083370001	5.31615669612022
27245000	-0.923552961020553	4.94996194163198
27390000	-0.90613952415719	4.60412499887754
27535000	-0.889329368038662	4.24624862198695
27680000	-0.875667762520507	3.9054880529868
27825000	-0.863426786813609	3.58165804980681
27970000	-0.853145579399872	3.25121787973597
28115000	-0.839233916211543	2.94187688315891
28260000	-0.82904242393441	2.61171104341873
28405000	-0.81913301439744	2.2830851931138
28550000	-0.811399785644372	1.97987505411825
28695000	-0.805041088100621	1.67635622883359
28840000	-0.797153084409285	1.37642866561567
28985000	-0.787399402900714	1.07790413622938
29130000	-0.778038400926872	0.771489874811988
29275000	-0.7694195158929	0.446523511314204
29420000	-0.759865602315569	0.113661391710725
29565000	-0.75230834833233	-0.261082970911305
29710000	-0.750264306112407	-0.644815520614566
29855000	-0.754196237413604	-1.01526485920016
30000000	-0.763142205886946	-1.39035663438053
