!Keysight Technologies N9918A: A.12.56
!Date: Monday, 07 July 2025 04:04:16
!TimeZone: (UTC-08:00) Pacific Time (US & Canada)!Model: N9918A
!Serial: MY56072139
!GPS Latitude: 
!GPS Longitude: 
!GPS TimeStamp: 0001-01-01 00:00:00Z
!GPS Seconds Since Last Read: 0
!CHECKSUM:0114059882
!Correction: S11(Rdy)
!S1P File: Measurement: S11:
# Hz S DB R 50
1000000	-0.053644019133003	-2.32077491940659
1038000	-0.0519457425868958	-2.40986403913059
1076000	-0.0540339823460159	-2.50673340911276
1114000	-0.0538779888201567	-2.60981281747134
1152000	-0.0553463942415241	-2.69853055170743
1190000	-0.0547141962651533	-2.7876974975102
1228000	-0.0550475037746189	-2.87731150189023
1266000	-0.0546986905642676	-2.97449283228937
1304000	-0.0531814201595717	-3.07815349825157
1342000	-0.0528354122283209	-3.18176258007129
1380000	-0.0540248360869584	-3.28685186200811
1418000	-0.0570432888270971	-3.37758516314124
1456000	-0.0559872109047303	-3.46444778920164
1494000	-0.0579718949424052	-3.57634896929906
1532000	-0.0575414256109985	-3.66941268077486
1570000	-0.0591631518940072	-3.77072025998524
1608000	-0.0592016978617354	-3.86575151057362
1646000	-0.0596093893175831	-3.97800748269652
1684000	-0.0603686943091705	-4.08279347085877
1722000	-0.0604161213937975	-4.19113826546537
1760000	-0.0626276179695351	-4.31709295278119
1798000	-0.063207846550144	-4.42070837196363
1836000	-0.0637362647727049	-4.53719401677511
1874000	-0.065883273043475	-4.65743442312703
1912000	-0.0678264877746408	-4.78287666722496
1950000	-0.0696438561487565	-4.91260433978196
1988000	-0.0729667160961327	-5.05134437889452
2026000	-0.0751363866721245	-5.19640038085727
2064000	-0.0916941028175361	-5.39773378417937
2102000	-0.0958323844355278	-5.54850432969606
2140000	-0.102108034872736	-5.67088716225616
2178000	-0.110185310741118	-5.84043354930871
2216000	-0.119781776976899	-5.99770956466617
2254000	-0.133638385276553	-6.15120268843255
2292000	-0.150076577293099	-6.310817620449
2330000	-0.172624284871742	-6.45189900049244
2368000	-0.189169657947802	-6.51534301223345
2406000	-0.2048311008231	-6.57489407604938
2444000	-0.210166759095068	-6.68735184374327
2482000	-0.219236971517575	-6.87206365645182
2520000	-0.244273812997066	-7.11572519075919
2558000	-0.28803870127604	-7.29888550254363
2596000	-0.342648342275645	-7.40122991624553
2634000	-0.398081114585414	-7.31387953705687
2672000	-0.429683051719872	-7.07299143630583
2710000	-0.417705695427054	-6.89769752206184
2748000	-0.389355755453972	-7.17034924328823
2786000	-0.462055212905673	-8.0284253230098
2824000	-0.761635743959037	-7.68854814881124
2862000	-0.792359892521166	-5.59661099018887
2900000	-0.644108764991737	-4.67304074882265
2938000	-0.515275716114275	-4.34486261709317
2976000	-0.391647743302513	-4.22935766720866
3014000	-0.26034004257681	-4.58432173186002
3052000	-0.199479612599481	-5.28689861792637
3090000	-0.197108633792263	-5.83038058900111
3128000	-0.213442255977547	-6.16226854705336
3166000	-0.224165064756307	-6.4147036031893
3204000	-0.237003592106706	-6.60948630697601
3242000	-0.246387343154325	-6.75034080991227
3280000	-0.261206764273149	-6.88329491197321
3318000	-0.274949315236799	-6.98959792630027
3356000	-0.288506565119218	-7.10631695408291
3394000	-0.300938686866509	-7.15930446064279
3432000	-0.312958862121102	-7.23453672863533
3470000	-0.326073686962292	-7.27432519758036
3508000	-0.325931580069671	-7.25458436896261
3546000	-0.33947086522461	-7.29199577108567
3584000	-0.342508663298407	-7.28655951928249
3622000	-0.345124695927779	-7.31109399305494
3660000	-0.339075696481903	-7.28997416322063
3698000	-0.33430997655975	-7.29712912872855
3736000	-0.327225861746226	-7.32594311166678
3774000	-0.312704146184554	-7.32610606085154
3812000	-0.3050215956939	-7.44845753064194
3850000	-0.294927016588583	-7.52203148255886
3888000	-0.290083652321396	-7.64606694225171
3926000	-0.283753990194531	-7.72792411437358
3964000	-0.280938580588613	-7.83583120027165
4002000	-0.278503739785323	-7.95446204330685
4040000	-0.282784841917928	-8.10355269133907
4078000	-0.281772206940356	-8.15194580955403
4116000	-0.277042081596408	-8.25894185740523
4154000	-0.281280815602942	-8.35160987535664
4192000	-0.279584738447159	-8.43996603821318
4230000	-0.283609016264786	-8.56483424022197
4268000	-0.282390343446542	-8.66714184341067
4306000	-0.286972667748878	-8.75031844400218
4344000	-0.288239070431478	-8.83835310403977
4382000	-0.285656078568258	-8.90431483349314
4420000	-0.289198214556822	-9.02850872587862
4458000	-0.284976495779473	-9.119059242024
4496000	-0.286085366549183	-9.23033444389728
4534000	-0.282614406932733	-9.35437691805505
4572000	-0.284128048205608	-9.40683012814705
4610000	-0.284246939393399	-9.59234317525476
4648000	-0.287953056949021	-9.69395594900402
4686000	-0.290110222744896	-9.8450367175468
4724000	-0.294018207879788	-9.97920414150533
4762000	-0.2979935010602	-10.0781879830764
4800000	-0.309210673105542	-10.1846526616289
4838000	-0.316885766118017	-10.3774553691775
4876000	-0.323566604179421	-10.4543513197855
4914000	-0.320354702847101	-10.6073283395593
4952000	-0.339983552486699	-10.7396309585897
4990000	-0.350539622203425	-10.8965420574972
5028000	-0.362851679501121	-11.0303934740628
5066000	-0.380361116237466	-11.1308464915728
5104000	-0.399305355783623	-11.2780146065808
5142000	-0.421435601353733	-11.3210354237016
5180000	-0.439631633737054	-11.4397845182235
5218000	-0.458095608072031	-11.4253816501586
5256000	-0.477923292900002	-11.4520703242691
5294000	-0.496459566817414	-11.4781579884111
5332000	-0.505035920436963	-11.3551091815194
5370000	-0.50578674849661	-11.3578073945223
5408000	-0.49768837714571	-11.3766436471281
5446000	-0.49082964425905	-11.4716620062733
5484000	-0.490628484946714	-11.5817407124618
5522000	-0.492731250613594	-11.7443014831117
5560000	-0.511699405592695	-11.8848748586192
5598000	-0.52605562298551	-11.9940162151378
5636000	-0.544786530095601	-12.1276010166998
5674000	-0.568825485961274	-12.1765820742051
5712000	-0.594372536307966	-12.2168218266382
5750000	-0.616742088954289	-12.2541685395764
5788000	-0.646242314299689	-12.2300455272171
5826000	-0.667001872102935	-12.206752273184
5864000	-0.682271360547709	-12.1276201924078
5902000	-0.698671496389676	-12.1135402199222
5940000	-0.713110186026048	-12.0575882049556
5978000	-0.730788554222211	-11.9809944694169
6016000	-0.728442545374112	-11.8955719684504
6054000	-0.73701940672749	-11.799119344412
6092000	-0.746267707321913	-11.7426821267746
6130000	-0.746174579105795	-11.6721685488174
6168000	-0.747787513022701	-11.6054091602589
6206000	-0.746714240856733	-11.5739366290721
6244000	-0.746012532681827	-11.4821001192605
6282000	-0.744170455832598	-11.4171876875262
6320000	-0.738779623602446	-11.3757382923411
6358000	-0.728276502345248	-11.3359528597332
6396000	-0.723687575932735	-11.288217752898
6434000	-0.711865542622482	-11.2589856557194
6472000	-0.705763469314396	-11.2674876660217
6510000	-0.694114003361613	-11.2334632459251
6548000	-0.681586757790079	-11.2533448814292
6586000	-0.671931781424104	-11.2281811526748
6624000	-0.667402325996305	-11.2341936177985
6662000	-0.656766797884023	-11.2598862055754
6700000	-0.647911743438884	-11.281478931586
6738000	-0.631868622835242	-11.2846823132515
6776000	-0.626260311166287	-11.3210265584379
6814000	-0.615793832973779	-11.3477531728836
6852000	-0.611709166807103	-11.4036169774791
6890000	-0.601556291064456	-11.3919452004459
6928000	-0.591799079654506	-11.4343620999012
6966000	-0.579389054182366	-11.4583695035025
7004000	-0.56851253449483	-11.5165189436346
7042000	-0.558358133716706	-11.5331162729936
7080000	-0.5504219424231	-11.5844017972362
7118000	-0.537079234081266	-11.6463206881544
7156000	-0.528218458494377	-11.6935020208585
7194000	-0.51394194400512	-11.7746253305217
7232000	-0.502148160195724	-11.8475380431444
7270000	-0.489911738266293	-11.9236223767068
7308000	-0.480804072801223	-11.9921254445161
7346000	-0.47178881026161	-12.0357502605237
7384000	-0.459780947976874	-12.170472215918
7422000	-0.454872933990933	-12.2596967869307
7460000	-0.443857472979234	-12.3258971478376
7498000	-0.437563077950472	-12.4231379223615
7536000	-0.429811498187458	-12.4971126179859
7574000	-0.423524680119631	-12.5747042392829
7612000	-0.41350179360885	-12.661751372181
7650000	-0.40370753869526	-12.7443438136084
7688000	-0.395472210075152	-12.8314628796488
7726000	-0.389145012047638	-12.9181981482321
7764000	-0.380202850474697	-13.0320698987962
7802000	-0.371736556959197	-13.1381357791834
7840000	-0.366246943299112	-13.209866068975
7878000	-0.357624532230032	-13.3291706279596
7916000	-0.351953231273243	-13.4418118124297
7954000	-0.34324145519631	-13.531593435937
7992000	-0.336987484453226	-13.6376767770633
8030000	-0.330444978130317	-13.7593453183742
8068000	-0.322814839127317	-13.8600330757303
8106000	-0.318722269743714	-13.9813286701188
8144000	-0.310424207419989	-14.0782822804127
8182000	-0.308352545347819	-14.2066273982771
8220000	-0.304718793921226	-14.3219088776242
8258000	-0.299390659753572	-14.4257325789196
8296000	-0.292924093383857	-14.5405533491932
8334000	-0.287015510843169	-14.6529110613558
8372000	-0.286497046288294	-14.7794756954543
8410000	-0.279588343642597	-14.8884791078745
8448000	-0.275261829743904	-15.0013864669088
8486000	-0.272635932293438	-15.1106820716553
8524000	-0.269217717875027	-15.2388310549333
8562000	-0.265519085182737	-15.3509369305407
8600000	-0.256942398714894	-15.4766321536374
8638000	-0.254989002263389	-15.6258493366188
8676000	-0.254893657028824	-15.7626431658078
8714000	-0.25342816024207	-15.8733988643409
8752000	-0.250919730460884	-16.0057542073032
8790000	-0.250770860483124	-16.1163790683478
8828000	-0.251165178124011	-16.2202445941442
8866000	-0.246117258324227	-16.3670941840976
8904000	-0.246158329851293	-16.479035083048
8942000	-0.244729694701344	-16.6015374363703
8980000	-0.242817936326621	-16.7238065202746
9018000	-0.239236765876023	-16.8510353205601
9056000	-0.240161052125595	-16.98535439555
9094000	-0.240514784245198	-17.0890088825517
9132000	-0.239119290371316	-17.2074707047309
9170000	-0.237305986885312	-17.3356011487879
9208000	-0.238479920209283	-17.4637356965582
9246000	-0.238749723557377	-17.5808857234258
9284000	-0.237377060184733	-17.7172582733695
9322000	-0.238889413325889	-17.8369471041454
9360000	-0.241933800572298	-17.9523159442578
9398000	-0.241017630133204	-18.0723465419004
9436000	-0.240568512905777	-18.1943982960619
9474000	-0.241626240863933	-18.3155599597702
9512000	-0.243433681883349	-18.4334427864948
9550000	-0.243608757007278	-18.5666333921299
9588000	-0.246400788948515	-18.7009725532515
9626000	-0.246098668282088	-18.8175482775406
9664000	-0.249996704681098	-18.9513807308219
9702000	-0.253975267516058	-19.0739155111675
9740000	-0.255463000003838	-19.1874353403639
9778000	-0.260658163918487	-19.3068512452111
9816000	-0.264106132932804	-19.4199325550713
9854000	-0.268931020342117	-19.5262775537821
9892000	-0.274749933607006	-19.6230884725577
9930000	-0.281933067917564	-19.7137781726966
9968000	-0.282395986890617	-19.7969929843787
10006000	-0.285158736244342	-19.8841887658707
10044000	-0.286092502611868	-19.9471472030075
10082000	-0.287797812670456	-20.0224768572596
10120000	-0.284852904400414	-20.0928199374171
10158000	-0.283624300068506	-20.1758969976362
10196000	-0.277521018676374	-20.2569298015329
10234000	-0.271399215345211	-20.3437079008993
10272000	-0.267020308638177	-20.4386196237266
10310000	-0.260549222121724	-20.5374348628293
10348000	-0.2542096701679	-20.6524180453383
10386000	-0.247700237982051	-20.7698927876418
10424000	-0.242297607331465	-20.9171919578009
10462000	-0.236416423949946	-21.0366725049001
10500000	-0.232519497130383	-21.1732563135259
10538000	-0.229394867805687	-21.2981412029564
10576000	-0.22607193623892	-21.4364220151923
10614000	-0.221690103036324	-21.5858161648411
10652000	-0.217970566389544	-21.7130022611881
10690000	-0.216850474648952	-21.8588435520251
10728000	-0.214660904483869	-22.0087350389923
10766000	-0.213548929142446	-22.1530892326064
10804000	-0.210641532126251	-22.2938888757448
10842000	-0.208000098290654	-22.4379557337239
10880000	-0.205020003863916	-22.6016224901362
10918000	-0.205562743711803	-22.729431847243
10956000	-0.203900860508163	-22.8811292057334
10994000	-0.200909538232595	-23.0391556013773
11032000	-0.200695225234942	-23.1795399000572
11070000	-0.20110928499459	-23.3411739262287
11108000	-0.199400680427588	-23.4916225616849
11146000	-0.199952396332486	-23.6384555801336
11184000	-0.199698260011593	-23.7836184619301
11222000	-0.199822236549441	-23.9495402145599
11260000	-0.197388599271836	-24.1102075645735
11298000	-0.197713502153364	-24.2535764780216
11336000	-0.199597338598499	-24.410715334059
11374000	-0.199925792469657	-24.5654745951388
11412000	-0.199341202121305	-24.7232587424795
11450000	-0.200764583561311	-24.8750811537854
11488000	-0.204304346352381	-25.0257157541687
11526000	-0.202522221040819	-25.1904090850501
11564000	-0.202954802824478	-25.3589379378448
11602000	-0.205190963032899	-25.5167631617441
11640000	-0.207231770155416	-25.6800747345229
11678000	-0.207618880932417	-25.8349751226817
11716000	-0.208128166955426	-25.9970926238013
11754000	-0.210397171735916	-26.1637603872659
11792000	-0.211803673963849	-26.322234919055
11830000	-0.213918250896246	-26.4881921627574
11868000	-0.216594685236461	-26.6626816147726
11906000	-0.218774440069068	-26.8210748862373
11944000	-0.219105625969664	-26.9854894800389
11982000	-0.222547123819897	-27.1524885745156
12020000	-0.224861782172875	-27.3257998817858
12058000	-0.228250805543264	-27.4995670142669
12096000	-0.230282211807838	-27.6682699147094
12134000	-0.234088404307991	-27.8458777525946
12172000	-0.236526328335534	-28.0159674168085
12210000	-0.240796531596428	-28.1814365797348
12248000	-0.245906152145055	-28.3708453483946
12286000	-0.249724400264958	-28.5366838237615
12324000	-0.254513295318686	-28.7258045941286
12362000	-0.260195073868234	-28.9042852263627
12400000	-0.266630100800888	-29.0772770110627
12438000	-0.272617253447847	-29.2633334582758
12476000	-0.279936345739943	-29.4364237691847
12514000	-0.287304753539902	-29.6065148101723
12552000	-0.294359467857142	-29.7852566755334
12590000	-0.303696006695098	-29.9570044520551
12628000	-0.313159399345051	-30.1052525689167
12666000	-0.321618262560485	-30.2667658517672
12704000	-0.333009835124246	-30.423589747234
12742000	-0.341643890140957	-30.5781263055477
12780000	-0.352513134091268	-30.6482216568692
12818000	-0.360253705244548	-30.832432369825
12856000	-0.369473588496184	-30.9586758125016
12894000	-0.376090676875763	-31.0790243793645
12932000	-0.382138250912812	-31.1891489112175
12970000	-0.386595691436075	-31.3004719644594
13008000	-0.391213830027094	-31.4140153649171
13046000	-0.392615397581315	-31.5310889075072
13084000	-0.394104892131069	-31.6373465723813
13122000	-0.395470104723332	-31.7580806714911
13160000	-0.393672170373504	-31.8768860135382
13198000	-0.391763915386346	-32.0092535206798
13236000	-0.389649290340405	-32.1469778453064
13274000	-0.38691702978871	-32.2893312604759
13312000	-0.383534546362603	-32.4247356003545
13350000	-0.379536370305579	-32.5778024139548
13388000	-0.374775724628108	-32.7316778119035
13426000	-0.371218056631531	-32.9067442350606
13464000	-0.368389765079641	-33.0699783709303
13502000	-0.363151916701827	-33.2555660815175
13540000	-0.359115204258841	-33.4362262755833
13578000	-0.354202552527725	-33.6220477275141
13616000	-0.351852657217907	-33.8169280999045
13654000	-0.348721836724487	-34.0151810659091
13692000	-0.345940619962451	-34.2107401837319
13730000	-0.344376149446146	-34.4201904156015
13768000	-0.340974276970831	-34.6121059035735
13806000	-0.337948491983535	-34.8494112864099
13844000	-0.336542282833771	-35.0515162347365
13882000	-0.336761291100912	-35.2621442703116
13920000	-0.337371464108114	-35.4978475430557
13958000	-0.337524533655994	-35.7117347635042
13996000	-0.335394932997796	-35.9416791420152
14034000	-0.337626600730445	-36.1651164194063
14072000	-0.339260415099281	-36.4044488512822
14110000	-0.342165466034654	-36.6331063861055
14148000	-0.345573385663381	-36.8533588468844
14186000	-0.347820356816923	-37.0829610276361
14224000	-0.353170508768182	-37.3023655911992
14262000	-0.356446832106381	-37.5528006188068
14300000	-0.360754981151992	-37.7602684305755
14338000	-0.364192992183323	-37.9899974462086
14376000	-0.368018260307665	-38.1939072547593
14414000	-0.372609708474398	-38.4035007203599
14452000	-0.375302966575835	-38.6217402725444
14490000	-0.379031530331494	-38.8305468340623
14528000	-0.382040145939054	-39.0492477153368
14566000	-0.383114992986308	-39.264161772618
14604000	-0.383837025519727	-39.4777454598739
14642000	-0.386755267742749	-39.6920190491053
14680000	-0.385743409856551	-39.9157368778363
14718000	-0.386521588749929	-40.135027951877
14756000	-0.385680422771748	-40.3632421722631
14794000	-0.386885242990752	-40.600275296974
14832000	-0.385623710347005	-40.8257685802406
14870000	-0.38487504874051	-41.0728162134174
14908000	-0.384043418729111	-41.3156382334349
14946000	-0.383828470639918	-41.5574903533037
14984000	-0.382654592272441	-41.8119501079457
15022000	-0.383222932697523	-42.0676379254256
15060000	-0.383118701547375	-42.3200554649151
15098000	-0.381927468281054	-42.5891666648944
15136000	-0.381543033754151	-42.8474116847826
15174000	-0.380980530306011	-43.1236159851198
15212000	-0.380578132471869	-43.395195007199
15250000	-0.382003578418801	-43.6804330455854
15288000	-0.381590250031336	-43.9624739083621
15326000	-0.383783168723858	-44.2459779434198
15364000	-0.386178752197731	-44.544739326512
15402000	-0.391002846260439	-44.8171719396256
15440000	-0.396769209782808	-45.0866083058639
15478000	-0.401756611052692	-45.3424475933845
15516000	-0.406306091374886	-45.5841962745693
15554000	-0.404526980092998	-45.7937854323166
15592000	-0.394650171916394	-46.038714102139
15630000	-0.382838310773033	-46.3090374797732
15668000	-0.371522760689563	-46.618897447573
15706000	-0.363725311039266	-46.9618474569805
15744000	-0.357590441833781	-47.3069106455198
15782000	-0.353772091969435	-47.6542663619577
15820000	-0.351663707864142	-48.0128728951277
15858000	-0.350095021122756	-48.3685802969772
15896000	-0.349666007323832	-48.7323422588396
15934000	-0.348504835845031	-49.0929299202227
15972000	-0.348920190987099	-49.4480490995874
16010000	-0.350850406404418	-49.8039235384302
16048000	-0.349783831878614	-50.1585259917124
16086000	-0.351070444861019	-50.5267182537664
16124000	-0.351658614444897	-50.8821235890421
16162000	-0.353111929202866	-51.2546067236677
16200000	-0.353108033207301	-51.627635884239
16238000	-0.354013402836461	-52.0089994845554
16276000	-0.352650949585704	-52.3810711567792
16314000	-0.350729995023683	-52.7535181590837
16352000	-0.352540026707917	-53.1480469919964
16390000	-0.352368867180758	-53.5385331285313
16428000	-0.353709500749431	-53.929807339706
16466000	-0.350576436930499	-54.3493324884118
16504000	-0.349652714978116	-54.7477866426419
16542000	-0.350474208022077	-55.1767955748627
16580000	-0.349156569439586	-55.5997162588596
16618000	-0.349711233100241	-56.0264630661303
16656000	-0.350217762275235	-56.4590568658332
16694000	-0.34994154770264	-56.9114546554007
16732000	-0.349695035590572	-57.3618231659834
16770000	-0.349486092533442	-57.8065074873149
16808000	-0.349718275890253	-58.2670839020575
16846000	-0.352680379481191	-58.7388826579371
16884000	-0.354670441316143	-59.20976117908
16922000	-0.354285698387155	-59.7033382726787
16960000	-0.3548523070933	-60.1822428853303
16998000	-0.358455574317138	-60.6746542276489
17036000	-0.359957616604257	-61.17229773603
