!Keysight Technologies N9918A: A.12.56
!Date: Monday, 21 July 2025 03:54:03
!TimeZone: (UTC-08:00) Pacific Time (US & Canada)!Model: N9918A
!Serial: MY56072139
!GPS Latitude: 
!GPS Longitude: 
!GPS TimeStamp: 0001-01-01 00:00:00Z
!GPS Seconds Since Last Read: 0
!CHECKSUM:0317265332
!Correction: S11(ON U)
!S1P File: Measurement: S11:
# Hz S DB R 50
500000	-0.0449942013071024	14.6484688580127
529500	-0.0427350533313051	13.7764213553773
559000	-0.0386561581589077	12.989414675571
588500	-0.0362736010803514	12.2685734575665
618000	-0.0347299998063372	11.6252680374644
647500	-0.0312203341861656	11.0251568168687
677000	-0.0307713193454	10.4665593967411
706500	-0.0286055978447014	9.95622314092591
736000	-0.0261700881875173	9.49448420175377
765500	-0.025968787137494	9.05089534171056
795000	-0.0254703983093205	8.63587301030149
824500	-0.0228962164006072	8.27154072136404
854000	-0.0209132101134528	7.91104440274469
883500	-0.02028664198022	7.58389763479167
913000	-0.019899502335977	7.25391942087635
942500	-0.0182537900214841	6.96899638421201
972000	-0.0167918865129272	6.66539380289454
1001500	-0.0172966798202186	6.39428404125171
1031000	-0.0170947071834983	6.14140254338928
1060500	-0.0140465518819723	5.90122248287604
1090000	-0.0132135844447579	5.65805920158584
1119500	-0.0133928229260364	5.43771169390725
1149000	-0.0128105474639248	5.22692793745167
1178500	-0.0115631315834124	5.01144797369046
1208000	-0.0113265307487878	4.82309112703544
1237500	-0.00925646579136925	4.64045159515573
1267000	-0.00981531071955229	4.43368409532404
1296500	-0.0109061094763704	4.27333527457328
1326000	-0.00981894551190019	4.09761418866287
1355500	-0.01120551585609	3.92275796771664
1385000	-0.00967834703380911	3.76442578770225
1414500	-0.00902524089527146	3.61361925235517
1444000	-0.00828921427266153	3.46677758955041
1473500	-0.00845654733744625	3.3125978168085
1503000	-0.00857513703270396	3.17935047695032
1532500	-0.00702016210818027	3.03904976955878
1562000	-0.00751567232327986	2.90839630666152
1591500	-0.00808307274461258	2.77633527315038
1621000	-0.00721167867590755	2.64224709499162
1650500	-0.00717449827501939	2.51825398267959
1680000	-0.00832116635727475	2.39782883301356
1709500	-0.00778432546990213	2.27020359322281
1739000	-0.0079670341504968	2.1704332544166
1768500	-0.00768721853401493	2.04408684971615
1798000	-0.00957021971745415	1.94014162751474
1827500	-0.00756471761867944	1.83154792892588
1857000	-0.00736293879434272	1.71629554328634
1886500	-0.00825588146849032	1.61425810472917
1916000	-0.0060164883219257	1.51359738422037
1945500	-0.00875864308434319	1.40711250531867
1975000	-0.00699545023949172	1.31487479522524
2004500	-0.0068787699729	1.21208338789074
2034000	-0.00725976669093613	1.11663947334293
2063500	-0.0087532946812717	0.971512802267006
2093000	-0.0089596920913158	0.85958374312868
2122500	-0.00821300211569365	0.763034942504222
2152000	-0.00927137594440483	0.668832032889709
2181500	-0.0111911348982773	0.564748679987509
2211000	-0.0157002473590493	0.475120195157206
2240500	-0.0110132166301243	0.395906385534977
2270000	-0.0123788649816555	0.290684033645997
2299500	-0.0109969553501836	0.203591245891447
2329000	-0.0117483350802053	0.0998123552453162
2358500	-0.013369393972814	0.0190656831835854
2388000	-0.0151503784900188	-0.0782125891044592
2417500	-0.0112014736111767	-0.169879406554768
2447000	-0.0183175591310918	-0.266020261131943
2476500	-0.0161363100024915	-0.375172788304618
2506000	-0.0164097953041622	-0.458202258317883
2535500	-0.0540731952045084	-0.553159888428237
2565000	-0.0218462880626346	-0.694118286179915
2594500	-0.0271383704227116	-0.80633055557243
2624000	-0.0293923794969564	-0.956668382747032
2653500	-0.0390101440641229	-1.10784973463695
2683000	-0.0505844983299982	-1.30603432487643
2712500	-0.0790717928215813	-1.56264657802
2742000	-0.13818140647345	-1.85325910323509
2771500	-0.292801730616835	-1.91834380459071
2801000	-0.412806881807045	-0.14735266716647
2830500	-0.176553809335681	0.608378073376078
2860000	-0.0713099065484936	0.167227622150447
2889500	-0.0317924487893365	-0.189521967607002
2919000	-0.0203386377499037	-0.460278690411844
2948500	-0.0153800080237291	-0.669467038216626
2978000	-0.0136309098178677	-0.816896507115123
3007500	-0.0116530784967606	-0.94012108290163
3037000	-0.0089908898673948	-1.06073375617676
3066500	-0.00913970221432308	-1.16514203905153
3096000	-0.00914283530590867	-1.25992684275511
3125500	0.00694944992246823	-1.34480810247451
3155000	-0.0121570498435045	-1.4332214283374
3184500	-0.0106248030477842	-1.52000785716704
3214000	-0.0116188073549874	-1.59009422634527
3243500	-0.0112170211063944	-1.68266467768252
3273000	-0.0122019249648205	-1.74141403790353
3302500	-0.0130233653087961	-1.81689481265919
3332000	-0.0126869464247	-1.87540368108036
3361500	-0.0136501434371334	-1.94514668815262
3391000	-0.0170128050658338	-2.02246001671434
3420500	-0.0152875371285174	-2.08582846273668
3450000	-0.0173509530200809	-2.14584981954117
3479500	-0.0169796447662452	-2.21646648677866
3509000	-0.0885188671182358	-2.32760828807212
3538500	-0.0175357928392542	-2.33162154565398
3568000	-0.0204951656478018	-2.4062351283054
3597500	-0.0178028357378568	-2.46223597335948
3627000	-0.0192599057176988	-2.52840133878971
3656500	-0.0220894935642417	-2.5678772990182
3686000	-0.0221377833428209	-2.63725354914867
3715500	-0.0234260327276377	-2.68932502603581
3745000	-0.0233557339972629	-2.74265479766635
3774500	-0.024969093217574	-2.80022159832451
3804000	-0.0262717009844643	-2.85121303970071
3833500	-0.0261379499039797	-2.90100903321328
3863000	-0.0242777045722811	-2.94487300109198
3892500	-0.0214818101246859	-3.00403285747752
3922000	-0.0254932816283057	-3.07555775872306
3951500	-0.0251635832784348	-3.12098843039095
3981000	-0.024291793298955	-3.17356771255223
4010500	-0.0248746696204143	-3.22139256591714
4040000	-0.025047722405048	-3.29790793753523
4069500	-0.0254378849339856	-3.34280196467207
4099000	-0.0291955245768906	-3.39490869913976
4128500	-0.0271304918694604	-3.43809496263144
4158000	-0.0276039496880027	-3.49022175264242
4187500	-0.0285849745427295	-3.53782633034579
4217000	-0.0277602072287925	-3.59694454766242
4246500	-0.0290567211862829	-3.62786854058208
4276000	-0.0310010651580313	-3.68344999109261
4305500	-0.0292273977670884	-3.71393171271957
4335000	-0.0286253985367247	-3.77705730558906
4364500	-0.0286853368181826	-3.82603423234222
4394000	-0.0274065786013973	-3.86733987644118
4423500	-0.0260991035453364	-3.9281070784185
4453000	-0.0260193886222263	-3.97438346832724
4482500	-0.0288504549175971	-4.03299399528277
4512000	-0.0243516379179262	-4.08591881160398
4541500	-0.0247830658040133	-4.1227962333676
4571000	-0.0253750242445434	-4.19759614241321
4600500	-0.0255755133250859	-4.24831127550006
4630000	-0.0235713926751314	-4.29734834638384
4659500	-0.0252155487422308	-4.36944847297466
4689000	-0.0228607323096606	-4.40852057561777
4718500	-0.0240027398332431	-4.46070218878189
4748000	-0.0238892149553561	-4.52741423024166
4777500	-0.0210730126547615	-4.57144695957606
4807000	-0.0233434660077253	-4.62382572440785
4836500	-0.0262319905125783	-4.66980086970202
4866000	-0.0261811504287743	-4.73154508559955
4895500	-0.0263263775652455	-4.80800851112365
4925000	-0.0267032923459672	-4.82581354393979
4954500	-0.026922259689448	-4.89943647717839
4984000	-0.0247193977198906	-4.93983255837961
5013500	-0.0267717145442931	-4.99554568686383
5043000	-0.0281886319060884	-5.05617790774057
5072500	-0.0403773987700832	-5.10013346845147
5102000	-0.0290153405757946	-5.17423540132142
5131500	-0.0306632785369357	-5.21950019003821
5161000	-0.0302637961864034	-5.27001570387343
5190500	-0.030428293006588	-5.30734149294841
5220000	-0.0319592644381442	-5.36373035105775
5249500	-0.0314021830899151	-5.40820378444785
5279000	-0.0322336296027604	-5.45401812948416
5308500	-0.0343232998659567	-5.50700912717982
5338000	-0.0338620752516049	-5.57866078009138
5367500	-0.0362565897203348	-5.61881832584911
5397000	-0.0347595269351068	-5.66903446578672
5426500	-0.0355114827671669	-5.71248030169746
5456000	-0.030593556926425	-5.75436792527352
5485500	-0.0389526255662522	-5.82856868230126
5515000	-0.0385650960391539	-5.87079611522178
5544500	-0.0383407552819608	-5.92059082608068
5574000	-0.0406169705224685	-5.98569605777842
5603500	-0.039351665998088	-6.02783181620338
5633000	-0.0402900835075445	-6.06638017981068
5662500	-0.0431509994025194	-6.12614885142844
5692000	-0.0417785255606494	-6.16514456363904
5721500	-0.0440508217300051	-6.21845333231732
5751000	-0.0433928436635361	-6.28699589642665
5780500	-0.0445801023690795	-6.33932373509449
5810000	-0.0462941357956423	-6.37119792989749
5839500	-0.0457577095218419	-6.43519347107964
5869000	-0.0459075540758333	-6.49494232232965
5898500	-0.0477373345549395	-6.53834941007445
5928000	-0.0491350704761084	-6.58367335134412
5957500	-0.0502341196070255	-6.63937500731825
5987000	-0.0537531788297152	-6.67820324003044
6016500	-0.0557594498944704	-6.74160551831911
6046000	-0.0604706743599204	-6.80430983076501
6075500	-0.0556624061203469	-6.84615797480759
6105000	-0.0576560167946029	-6.89693429961732
6134500	-0.0582111146035575	-6.92890741202301
6164000	-0.0593294204572068	-6.98828053482486
6193500	-0.0631382011702498	-7.04298687088392
6223000	-0.0660527379931094	-7.09772810937494
6252500	-0.0657024709212085	-7.16830323194582
6282000	-0.0652684671657306	-7.20808521535334
6311500	-0.0697573055545357	-7.25520070341101
6341000	-0.0716298040713447	-7.3084715749395
6370500	-0.0769143625612971	-7.34532832437759
6400000	-0.0753425575487637	-7.38502668923752
6429500	-0.0802551808325244	-7.43740855288204
6459000	-0.079793972066684	-7.50364644308704
6488500	-0.0825578632618872	-7.53662158017163
6518000	-0.0875612019071732	-7.5795770772402
6547500	-0.08835591694383	-7.62992088807156
6577000	-0.0918708592493256	-7.66504468214293
6606500	-0.0935002064301878	-7.70645210590272
6636000	-0.100075204965736	-7.75376066067799
6665500	-0.0990216965726323	-7.78435827783205
6695000	-0.102897506647657	-7.81986397991874
6724500	-0.10365427857207	-7.87712765271601
6754000	-0.103666072269364	-7.89012377373125
6783500	-0.107872659664185	-7.93381773150063
6813000	-0.11114491028083	-7.97632553872566
6842500	-0.115078403030356	-8.0310764751373
6872000	-0.115298154079395	-8.05289691830463
6901500	-0.117098534198175	-8.09224747275731
6931000	-0.120150385554937	-8.10823322774081
6960500	-0.123002964324172	-8.13630108022398
6990000	-0.124427744183804	-8.15636505385023
7019500	-0.125428604281657	-8.20146215834574
7049000	-0.126878819838791	-8.22631079504266
7078500	-0.126520064035173	-8.25535710192113
7108000	-0.127132629153065	-8.28308696356846
7137500	-0.128457514893577	-8.31722018229502
7167000	-0.130760115753127	-8.32982280361266
7196500	-0.131450630266784	-8.35429048499037
7226000	-0.128664525335854	-8.39789985016964
7255500	-0.130976280348857	-8.42295426574087
7285000	-0.13065879429535	-8.44592922677107
7314500	-0.12971365497599	-8.47826813986652
7344000	-0.129616166801995	-8.5045990398897
7373500	-0.130211893618457	-8.53616359405464
7403000	-0.128307658807024	-8.55499422780944
7432500	-0.127759527463789	-8.59522266975789
7462000	-0.127234976929658	-8.61440305552901
7491500	-0.126294551096813	-8.65631774220328
7521000	-0.124620859006648	-8.67766072183542
7550500	-0.11995673715768	-8.74106564111172
7580000	-0.123989452916336	-8.75442013738467
7609500	-0.118749351364916	-8.81034608947506
7639000	-0.118604525331521	-8.84431026744167
7668500	-0.116080845448527	-8.90025674234787
7698000	-0.116442107539525	-8.92838640417558
7727500	-0.113769691458163	-8.98252065434359
7757000	-0.116459159219571	-9.02290388311901
7786500	-0.111695176191019	-9.05405481586628
7816000	-0.11269317211026	-9.09396264179749
7845500	-0.110868421078131	-9.15014870047922
7875000	-0.114164689192213	-9.19651622978268
7904500	-0.110484023314066	-9.24891195245074
7934000	-0.110280515233183	-9.27416563332543
7963500	-0.108400613870326	-9.34445964921149
7993000	-0.112237241714366	-9.37799863763803
8022500	-0.109062173806503	-9.42326988206186
8052000	-0.111534604311197	-9.46392876131217
8081500	-0.107956780341241	-9.53314491827581
8111000	-0.109299911257512	-9.55997825824918
8140500	-0.109456158107403	-9.61878862389309
8170000	-0.109895035094564	-9.66522951341388
8199500	-0.111095009306919	-9.68837923010537
8229000	-0.110853932114606	-9.73423935340127
8258500	-0.111886151509713	-9.77890364880318
8288000	-0.109461464910287	-9.82584576867165
8317500	-0.11116139969203	-9.87510810761551
8347000	-0.114453333687177	-9.90604308694293
8376500	-0.114463006781332	-9.95698741210361
8406000	-0.113769260225911	-9.97651736777814
8435500	-0.112755695896711	-10.0224983361562
8465000	-0.112691669840276	-10.0628354781951
8494500	-0.110991595211885	-10.0960877158285
8524000	-0.112059864884089	-10.1330667162714
8553500	-0.112494511889255	-10.188873352675
8583000	-0.111995191765375	-10.2213416182584
8612500	-0.109519472885192	-10.2653123388298
8642000	-0.109502772282438	-10.3006717506111
8671500	-0.107063748653983	-10.3350401143032
8701000	-0.108844440715453	-10.3927215823909
8730500	-0.107729245908196	-10.4409562791392
8760000	-0.107942369685219	-10.4866362414
8789500	-0.108967075331607	-10.5285237955404
8819000	-0.106354888433535	-10.5722345812752
8848500	-0.10580643717422	-10.6060260255014
8878000	-0.10556429112679	-10.6673926533105
8907500	-0.104794844311466	-10.7099981637223
8937000	-0.104736018918915	-10.7341488786727
8966500	-0.108139844784433	-10.7966281941453
8996000	-0.101700163209404	-10.8350387690431
9025500	-0.101204571587572	-10.8907593861833
9055000	-0.102503547972051	-10.9274615995557
9084500	-0.101351150767549	-10.974814857161
9114000	-0.0989125072837366	-11.0233007920497
9143500	-0.0971840316926677	-11.0770608422175
9173000	-0.0980179581193477	-11.1259478574638
9202500	-0.0976683601097177	-11.1741001663143
9232000	-0.095005631064811	-11.2299674922326
9261500	-0.0926987617638125	-11.2742808946823
9291000	-0.092432420234064	-11.3090639400731
9320500	-0.0932673250466456	-11.365128140936
9350000	-0.0922046331792455	-11.4139998445984
9379500	-0.0909002217375719	-11.4608307730729
9409000	-0.0896081897953927	-11.5220948193174
9438500	-0.0904411116763902	-11.5715351999691
9468000	-0.0909403917608385	-11.6342459280501
9497500	-0.0884889708471222	-11.6764302656516
9527000	-0.0891588466354735	-11.7348701120265
9556500	-0.0912659966549386	-11.7732723717656
9586000	-0.0878577078542827	-11.8411247896701
9615500	-0.0885065358006181	-11.8786445916891
9645000	-0.0887604787472123	-11.928756048922
9674500	-0.0893523742485028	-11.9885889972952
9704000	-0.0869658377475132	-12.0287125384538
9733500	-0.0884790864875955	-12.0776247123946
9763000	-0.087794069403043	-12.1408820449622
9792500	-0.0863953158117019	-12.1792708192448
9822000	-0.0866093616827782	-12.2465208499062
9851500	-0.0829865338645815	-12.2842087313374
9881000	-0.0858300210086081	-12.3291572808276
9910500	-0.0858916211293452	-12.4094166187728
9940000	-0.082969401668169	-12.4551415331644
9969500	-0.0846530454728798	-12.4923748285138
9999000	-0.0830739742597183	-12.5547322799877
10028500	-0.0836291814117773	-12.6160624099717
10058000	-0.0831052792867825	-12.6740832321968
10087500	-0.08231596910955	-12.7336916263819
10117000	-0.081163799220401	-12.7894881280958
10146500	-0.0814798179339673	-12.8363261325227
10176000	-0.0826935095038953	-12.8926942067524
10205500	-0.0826554708987021	-12.9510818684621
10235000	-0.0804783001130469	-13.0235915628731
10264500	-0.0833536412822886	-13.0683570029296
10294000	-0.0840381451280117	-13.1186548903265
10323500	-0.081790808758902	-13.1836894270237
10353000	-0.0854393847365334	-13.2420653319993
10382500	-0.0828424332168901	-13.291703384925
10412000	-0.0853036129516077	-13.3383365648608
10441500	-0.0849426054254196	-13.3947767174938
10471000	-0.0854659312510227	-13.446914156969
10500500	-0.0859270407612435	-13.5077152293835
10530000	-0.0870799078541951	-13.561971525928
10559500	-0.0872966039022365	-13.6117041174953
10589000	-0.086215456703419	-13.6671188757074
10618500	-0.0867385847498703	-13.7131479567222
10648000	-0.0901199491007013	-13.7623589863998
10677500	-0.0902988046417279	-13.8199086395609
10707000	-0.0880872928165129	-13.8602392092601
10736500	-0.0913258760901852	-13.9193860454595
10766000	-0.0932193947649796	-13.9592605073266
10795500	-0.0917557315201405	-14.0195096022756
10825000	-0.0898568809690933	-14.067051401365
10854500	-0.0902331250297712	-14.1127855323892
10884000	-0.0905004603241728	-14.1610025347566
10913500	-0.0901835152117057	-14.2060086597379
10943000	-0.0894429775721293	-14.2760997940572
10972500	-0.0886980065305312	-14.3241741373009
11002000	-0.0908471252710823	-14.3603046545102
11031500	-0.0884228202583681	-14.4275554295939
11061000	-0.0871839394890782	-14.4835825009759
11090500	-0.0888536278370112	-14.5470248602482
11120000	-0.089315964540393	-14.5957895400296
11149500	-0.085454110839018	-14.6494708147777
11179000	-0.084466774129197	-14.7122221819722
11208500	-0.0877794526688191	-14.7682229403656
11238000	-0.086344909310425	-14.8195650721315
11267500	-0.0827513255658474	-14.8880467575937
11297000	-0.0849395804353494	-14.9446695447977
11326500	-0.0846727842015486	-15.0044613586802
11356000	-0.085523459097079	-15.0632982102171
11385500	-0.0845444060437286	-15.1201246779108
11415000	-0.0875462626100448	-15.1755532327248
11444500	-0.085255798614593	-15.2417606656401
11474000	-0.0830816080166565	-15.3112555529149
11503500	-0.0862742887074803	-15.3539980808909
11533000	-0.0851558755151723	-15.4060080594441
11562500	-0.0858678891467051	-15.4633739591322
11592000	-0.0843164983128767	-15.5357571128315
11621500	-0.084894340371312	-15.5889297870348
11651000	-0.0835705690442035	-15.637987532442
11680500	-0.0853598777562354	-15.7227547883241
11710000	-0.0857947842992965	-15.7780997600868
11739500	-0.0842044718167968	-15.8326350613634
11769000	-0.0866715495272044	-15.8976165957743
11798500	-0.084720249526537	-15.9699537484646
11828000	-0.0898137795399499	-16.0138033278355
11857500	-0.0882012806199754	-16.1116069556004
11887000	-0.0902429119719951	-16.1633380181657
11916500	-0.0911021004209198	-16.2223817654792
11946000	-0.0904009062346301	-16.2730307318101
11975500	-0.0904051818012621	-16.340989485305
12005000	-0.0903665843804994	-16.3992834757161
12034500	-0.0915891700727089	-16.4606344449164
12064000	-0.0931728590704693	-16.5101741238476
12093500	-0.0965771164604058	-16.5754677579319
12123000	-0.0938767745681948	-16.6298316010166
12152500	-0.0975691075696867	-16.6985990417239
12182000	-0.0969604586597143	-16.7489153046115
12211500	-0.098655991033532	-16.8042746272455
12241000	-0.0987252710323806	-16.865518076875
12270500	-0.102677600385902	-16.9164023450604
12300000	-0.100432358926501	-16.9701068434058
12329500	-0.101526438400063	-17.0405328606638
12359000	-0.104496663962128	-17.0776067678433
12388500	-0.1024841067716	-17.1171358673691
12418000	-0.10318418765837	-17.1894557807089
12447500	-0.102198714401067	-17.2536645661761
12477000	-0.104258819143907	-17.2952402742482
12506500	-0.102767224697793	-17.3809863840749
12536000	-0.101650733587012	-17.4123563286721
12565500	-0.101101580056271	-17.485978224134
12595000	-0.0992051328588525	-17.5517634458254
12624500	-0.099264945508261	-17.6116358165814
12654000	-0.0995457032424171	-17.6569213159465
12683500	-0.0978598494566119	-17.7250567353519
12713000	-0.0976202324188281	-17.8020103617424
12742500	-0.0972810813547057	-17.8422390934393
12772000	-0.097512592886326	-17.9413918148441
12801500	-0.0957105460051877	-17.9791557202245
12831000	-0.0991580115359306	-18.0555461574072
12860500	-0.0975361371030877	-18.1152380206257
