!Keysight Technologies N9918A: A.12.56
!Date: Monday, 07 July 2025 02:55:07
!TimeZone: (UTC-08:00) Pacific Time (US & Canada)!Model: N9918A
!Serial: MY56072139
!GPS Latitude: 
!GPS Longitude: 
!GPS TimeStamp: 0001-01-01 00:00:00Z
!GPS Seconds Since Last Read: 0
!CHECKSUM:0806681057
!Correction: S11(Rdy)
!S1P File: Measurement: S11:
# Hz S DB R 50
1000000	-0.278548461314595	22.5551580720523
1145000	-0.278333302322774	18.4472525930986
1290000	-0.278209523829292	15.0566745264403
1435000	-0.280009615324862	12.1604430436628
1580000	-0.282097729141731	9.62729023967476
1725000	-0.283091852333396	7.33960923688593
1870000	-0.286185024431172	5.20769930596477
2015000	-0.295648814182569	3.1514108501187
2160000	-0.272189597417293	2.09941965243302
2305000	-0.316171096054365	0.15225738786643
2450000	-0.387855777194358	-1.51762931426005
2595000	-0.60447465779354	-3.30039489808682
2740000	-0.789554941972385	-2.33650706941067
2885000	-0.587034321947801	-2.31205410735567
3030000	-0.290640528932847	-3.74832979639202
3175000	-0.304625665206348	-6.25774778125489
3320000	-0.363819333598459	-7.8746941673793
3465000	-0.420529278575547	-9.13802962114072
3610000	-0.449639057234676	-10.1770229959654
3755000	-0.434820937179971	-11.2290098973969
3900000	-0.387731954213391	-12.6160368836711
4045000	-0.395722737836835	-14.0921450137312
4190000	-0.396679129021694	-15.5770828224362
4335000	-0.397230328232038	-17.1209939889142
4480000	-0.402575012779572	-18.6399917128429
4625000	-0.405223061257803	-20.4043998649729
4770000	-0.416025656800416	-22.2570193988298
4915000	-0.455368758340854	-24.1956961287022
5060000	-0.50563123371676	-26.1436030119017
5205000	-0.579372246355984	-28.0271939322775
5350000	-0.622879060071854	-29.7002508674391
5495000	-0.596334747696211	-31.8448514352906
5640000	-0.645056818257196	-34.4489391092926
5785000	-0.709371120458283	-36.7858692683543
5930000	-0.741319168209253	-39.2299087728827
6075000	-0.744367900855249	-41.9222682348174
6220000	-0.719695946619244	-45.0355046869853
6365000	-0.678506942526909	-48.6623514521352
6510000	-0.631690503586483	-52.8432603750263
6655000	-0.58806383416445	-57.7094858571345
6800000	-0.54417222003419	-63.3427182969711
6945000	-0.507260079207305	-69.8239281629377
7090000	-0.469011984148804	-77.266225024184
7235000	-0.442815276901977	-85.9090042767669
7380000	-0.428378754779975	-95.8924768066009
7525000	-0.423280423290118	-107.306024698972
7670000	-0.426122305101722	-120.296319882861
7815000	-0.441440980512354	-134.801823084549
7960000	-0.467200889926385	-150.651877707468
8105000	-0.49645959837037	-167.34096626634
8250000	-0.532172040405011	175.737570350913
8395000	-0.557929050202607	159.215264339254
8540000	-0.581994131960038	143.769980450572
8685000	-0.575496995037165	129.771774259874
8830000	-0.571192668875708	117.144137857355
8975000	-0.572436264282297	106.090328249724
9120000	-0.568062969782648	96.4546753326855
9265000	-0.56752583772255	88.073898042414
9410000	-0.573046467324139	80.8023916108438
9555000	-0.580548499172582	74.4055859315828
9700000	-0.599704179043	68.7928998103796
9845000	-0.646760904985386	63.9616751790638
9990000	-0.700710110010932	59.9450997187943
10135000	-0.709677263288457	56.6702494830378
10280000	-0.666310865159096	53.7323051168829
10425000	-0.601598881213963	50.8153722852077
10570000	-0.551193253729249	48.0382646232571
10715000	-0.514913755424424	45.4414109758677
10860000	-0.487195759831256	43.0326389793879
11005000	-0.467387537983168	40.8490939888666
11150000	-0.451053782757241	38.7912470410223
11295000	-0.442918897940073	36.8758948682479
11440000	-0.438061823495633	35.2944178384115
11585000	-0.406185076654221	33.5919680986689
11730000	-0.397766046973707	31.9874715196705
11875000	-0.394651324468468	30.501550480841
12020000	-0.391207959698045	29.1099388400322
12165000	-0.389544875649099	27.7962414847232
12310000	-0.389446382065488	26.5291936107749
12455000	-0.39287154159304	25.2906587478462
12600000	-0.405552469676054	24.1131146996975
12745000	-0.425175659582064	23.0046886824716
12890000	-0.450253140531201	21.9987059047363
13035000	-0.475013706137791	21.0983150686654
13180000	-0.494140154830643	20.2806061512664
13325000	-0.507431874196383	19.489031438347
13470000	-0.516701221067174	18.7116822323758
13615000	-0.530348829232997	17.9477473406501
13760000	-0.543479235750777	17.203659036986
13905000	-0.558733191622089	16.4993515186472
14050000	-0.576491425545445	15.7828707093507
14195000	-0.604909383817078	15.0945899653656
14340000	-0.641332130212999	14.5053817171738
14485000	-0.677335207828266	14.0501835831125
14630000	-0.698166650283832	13.674573229985
14775000	-0.709435487027066	13.3056851581506
14920000	-0.712664183658529	12.9201163491479
15065000	-0.713327105717807	12.5408605435157
15210000	-0.71761744594145	12.1848022325355
15355000	-0.714441775695239	12.0165771770574
15500000	-0.635628966603367	11.604954487654
15645000	-0.617353699997736	10.8281693620047
15790000	-0.624567842044215	10.1825632616335
15935000	-0.642262422375448	9.60684152757188
16080000	-0.662732731119491	9.15940075781563
16225000	-0.679419621599937	8.80240406184237
16370000	-0.680159065071183	8.47019088191477
16515000	-0.668607302912101	8.09967783075276
16660000	-0.655761287052291	7.64808224193765
16805000	-0.64543598915434	7.13997231861541
16950000	-0.643004837473392	6.57280525411805
17095000	-0.650398111140544	5.9929108805959
17240000	-0.66720257115265	5.40649429470122
17385000	-0.694250864096152	4.85581913721855
17530000	-0.734721964646407	4.32869064953222
17675000	-0.782785849152622	3.88670366883594
17820000	-0.833609626436069	3.56070952079043
17965000	-0.878440507614741	3.3088162267994
18110000	-0.920856431636472	3.12887133629684
18255000	-0.945821624684881	3.04923591184457
18400000	-0.950440862451591	2.92145380916168
18545000	-0.94543671758061	2.74458501531231
18690000	-0.936766961147953	2.49423029681009
18835000	-0.932227277808624	2.164594391934
18980000	-0.929185916316018	1.78416098296342
19125000	-0.937584748074461	1.36984196137574
19270000	-0.947403874342179	0.965709415958489
19415000	-0.961730250218028	0.56660986607158
19560000	-0.983176371452432	0.20493832949449
19705000	-1.00015048552676	-0.209044722453684
19850000	-1.02274669301781	-0.613551739002822
19995000	-1.04816572137364	-1.02918752896533
20140000	-1.07816900066014	-1.47619097655446
20285000	-1.11505645650795	-1.93485145045237
20430000	-1.16179203203875	-2.38426608540871
20575000	-1.21707051228652	-2.8144055416383
20720000	-1.28291408022475	-3.18688770526957
20865000	-1.3625304200354	-3.52568562009191
21010000	-1.44189714118918	-3.75093463921379
21155000	-1.52499125353876	-3.82401176359225
21300000	-1.58450370000616	-3.80720897298492
21445000	-1.62009167754902	-3.85401983394204
21590000	-1.66075701948396	-4.0576156829725
21735000	-1.7219244834044	-4.28495502506052
21880000	-1.79168656725367	-4.42182208494584
22025000	-1.85510941688232	-4.53352175254006
22170000	-1.93317285109669	-4.66328314999882
22315000	-2.02585975642059	-4.72712655927953
22460000	-2.13341856793379	-4.63249603020886
22605000	-2.2400567719362	-4.24547143319039
22750000	-2.29136481840783	-3.47353210128619
22895000	-2.22360493513936	-3.09662008433794
23040000	-2.22094519624931	-3.64624234805868
23185000	-2.33106614954969	-3.93314817456007
23330000	-2.45121362417366	-3.78308386655374
23475000	-2.55867525057692	-3.34338415473822
23620000	-2.63637926496496	-2.74001104750075
23765000	-2.67825839634923	-2.08676505444792
23910000	-2.70131914802609	-1.4921666111309
24055000	-2.71501638653016	-1.02997756150396
24200000	-2.74544510274591	-0.623732401591982
24345000	-2.79540520522479	-0.119566828898847
24490000	-2.84337897815557	0.622897015035688
24635000	-2.86370317892191	1.58101906659629
24780000	-2.83966527598343	2.60590758376526
24925000	-2.7696292780032	3.6374992066181
25070000	-2.65528359569411	4.44499662850062
25215000	-2.52042656739121	4.94402561910638
25360000	-2.40513610818954	5.11623504419975
25505000	-2.33175612600718	5.14974656175233
25650000	-2.29058324700057	5.40872440317448
25795000	-2.22691836770005	5.99074433261363
25940000	-2.10360265272747	6.54514436624828
26085000	-1.94487096844566	6.82548459692986
26230000	-1.78403265910166	6.78233709420295
26375000	-1.64491910145915	6.53080782916675
26520000	-1.52494606322621	6.1445001781847
26665000	-1.42347849011666	5.72451119998711
26810000	-1.33748219228942	5.27864047670513
26955000	-1.2617930877479	4.84491865257751
27100000	-1.19492557218096	4.36580670124454
27245000	-1.14070391207988	3.89682559290615
27390000	-1.08994724460191	3.43248955237351
27535000	-1.04596886294051	2.97215240762649
27680000	-1.00861918227262	2.54128136194161
27825000	-0.974487474759953	2.09355103097955
27970000	-0.941358524091455	1.68121962037278
28115000	-0.904666240148457	1.23825774835412
28260000	-0.869430216505749	0.74463341099254
28405000	-0.842088870173496	0.202913106020845
28550000	-0.823170571666427	-0.392665980452828
28695000	-0.819903336619928	-1.01493866641227
28840000	-0.832807376845681	-1.63346434065731
28985000	-0.863287275663708	-2.21042213299387
29130000	-0.907750078338299	-2.68329705084071
29275000	-0.960043599489371	-3.04103832583
29420000	-1.00803908543684	-3.27337391564806
29565000	-1.04756956815607	-3.43965408119796
29710000	-1.08101279221778	-3.57422412608032
29855000	-1.10945049693205	-3.6930908788219
30000000	-1.13414845468594	-3.80129797800315
