!Keysight Technologies N9918A: A.12.56
!Date: Monday, 21 July 2025 02:45:00
!TimeZone: (UTC-08:00) Pacific Time (US & Canada)!Model: N9918A
!Serial: MY56072139
!GPS Latitude: 
!GPS Longitude: 
!GPS TimeStamp: 0001-01-01 00:00:00Z
!GPS Seconds Since Last Read: 0
!CHECKSUM:0853722636
!Correction: S11(ON U)
!S1P File: Measurement: S11:
# Hz S DB R 50
1000000	-0.975144449526153	152.410766242951
1038000	-0.981392570751855	151.408721780368
1076000	-0.986381781213646	150.407752131881
1114000	-0.990327809327874	149.399138504132
1152000	-0.995249933650386	148.41667971081
1190000	-0.99992270165904	147.405833041916
1228000	-1.00064583788777	146.426568343514
1266000	-1.0062386895357	145.444739814636
1304000	-1.01003072036674	144.457297884444
1342000	-1.01255636963412	143.496233482216
1380000	-1.01554188324169	142.518270888393
1418000	-1.01530815324108	141.555154344457
1456000	-1.02236944699634	140.596470861307
1494000	-1.02622659065617	139.64123377171
1532000	-1.02408216654813	138.679828848752
1570000	-1.02737958555006	137.734792599258
1608000	-1.03061770341204	136.781523308917
1646000	-1.0306282407001	135.853408907913
1684000	-1.03302365150003	134.92929529977
1722000	-1.03723065542527	133.964937114044
1760000	-1.03938923436742	133.038219209113
1798000	-1.04196552498253	132.125468394643
1836000	-1.04520931604736	131.219457193345
1874000	-1.04526503302191	130.303530281457
1912000	-1.04761102568597	129.381950424168
1950000	-1.04871940444337	128.482727238293
1988000	-1.05076282384095	127.577487570804
2026000	-1.05071437678564	126.65931646209
2064000	-1.04192456274679	125.593266115867
2102000	-1.04682993321606	124.719220399894
2140000	-1.04933073212799	123.821223094003
2178000	-1.0443097625142	122.917232067498
2216000	-1.04611075542681	122.054353560903
2254000	-1.05067294207491	121.160901385312
2292000	-1.05496940197587	120.242359670336
2330000	-1.05622482159522	119.388306490178
2368000	-1.0648434709921	118.495050316461
2406000	-1.06204970276446	117.591101539925
2444000	-1.06503640005618	116.696790872904
2482000	-1.07298556296975	115.858082501824
2520000	-1.08070918795768	114.989500434432
2558000	-1.08543000916599	114.081010391243
2596000	-1.09428829865988	113.175821974962
2634000	-1.11049402524259	112.338964126135
2672000	-1.11212865055793	111.441632839763
2710000	-1.12749206969794	110.608035418346
2748000	-1.14124027579319	109.78432032359
2786000	-1.15662156858831	108.840562525239
2824000	-1.1764703548724	108.042727750497
2862000	-1.19175942835676	107.227413663485
2900000	-1.21353588313243	106.3161261849
2938000	-1.2466638180269	105.512538192181
2976000	-1.27618237644861	104.649448448452
3014000	-1.3101310398618	103.855612201795
3052000	-1.34464845658838	103.111878717914
3090000	-1.38387043981088	102.361207552875
3128000	-1.42954658404903	101.667985134161
3166000	-1.47450545990367	100.955721221756
3204000	-1.51894988057544	100.346544877606
3242000	-1.58261976898569	99.7540152806245
3280000	-1.62252226630824	99.1853299060695
3318000	-1.6695898481732	98.7442812749167
3356000	-1.71462480101419	98.3616832091502
3394000	-1.75609838655634	98.0752955582954
3432000	-1.7988016472972	97.6957615408457
3470000	-1.82317882666927	97.3796223748377
3508000	-1.87109975854635	97.0551828805935
3546000	-1.83362618744979	97.0349288605362
3584000	-1.83176281572902	96.7783606109683
3622000	-1.82697936517254	96.551063763911
3660000	-1.80836937105673	96.2793520414234
3698000	-1.78662638260604	95.9781787312396
3736000	-1.74751753843824	95.6807224551221
3774000	-1.71855755927338	95.3157403629818
3812000	-1.69291838775071	94.9501724343389
3850000	-1.6507291403964	94.5273398179278
3888000	-1.62225713925675	94.0947909603655
3926000	-1.58317359946972	93.5675465540673
3964000	-1.5477066239821	93.1593585095938
4002000	-1.51610274531541	92.6522274046226
4040000	-1.47403522586057	92.1150556126675
4078000	-1.44960363045689	91.551214887528
4116000	-1.42142481445359	91.0899318792254
4154000	-1.38543244340055	90.4975860945617
4192000	-1.36059973734969	89.9537099755412
4230000	-1.33832978201808	89.3788613391047
4268000	-1.31337143275215	88.782712691617
4306000	-1.28750812532215	88.231638212593
4344000	-1.26851183131538	87.6883825024848
4382000	-1.23902062880829	87.0607233986457
4420000	-1.220063745478	86.5402952791731
4458000	-1.20097628494738	85.9354244581816
4496000	-1.19033478405381	85.3701318755084
4534000	-1.178936367349	84.7951829074255
4572000	-1.15709102735118	84.2160801868638
4610000	-1.14854872238813	83.6956809449235
4648000	-1.13282152739341	83.1188873067088
4686000	-1.12338668772118	82.5733399498738
4724000	-1.11195908107256	82.0663861783255
4762000	-1.10274631877786	81.5481906406831
4800000	-1.09716477161484	81.0061573962741
4838000	-1.08205159984773	80.4989736057874
4876000	-1.06808990461419	79.9738052095991
4914000	-1.05500066467995	79.5029716909987
4952000	-1.0420468090875	78.9987530638482
4990000	-1.02721326662304	78.4653700833045
5028000	-1.02610818934362	77.9260963419656
5066000	-1.01850678438615	77.5341186866747
5104000	-1.00048405625418	77.0161184919124
5142000	-0.988623243551974	76.5602446583764
5180000	-0.976558346578258	76.0355968658422
5218000	-0.95952041583402	75.5047016406002
5256000	-0.954895029894919	75.0390329996033
5294000	-0.941729617893732	74.5211699238523
5332000	-0.93737131294586	74.0207491244474
5370000	-0.931599002455447	73.5441995921789
5408000	-0.924769690031765	73.0662552807506
5446000	-0.923139298249523	72.613011627628
5484000	-0.911342928388617	72.1586671417682
5522000	-0.905197219398018	71.6841204308909
5560000	-0.896080530378197	71.2506524441991
5598000	-0.896298509237601	70.7607866673964
5636000	-0.882977336989737	70.3351239295916
5674000	-0.876541452555198	69.8935386325217
5712000	-0.866749010136634	69.4511369046139
5750000	-0.859346738694851	68.9863245122465
5788000	-0.851259867123109	68.5717793116606
5826000	-0.841877135969011	68.0977357027165
5864000	-0.8353923273388	67.6606887202344
5902000	-0.830764644771967	67.2338288626449
5940000	-0.822581243984604	66.7967206393611
5978000	-0.813832649679796	66.3618223612834
6016000	-0.807093935925038	65.9313099280432
6054000	-0.802678225163844	65.5077706467214
6092000	-0.795337664517166	65.0572274573923
6130000	-0.793184683432605	64.6792096604204
6168000	-0.780029002866397	64.215962891517
6206000	-0.775353034153512	63.8093912446303
6244000	-0.764480211355083	63.3495821864457
6282000	-0.766585663900417	62.9992218951446
6320000	-0.757328441170442	62.5965092034872
6358000	-0.752739696218092	62.1784400780135
6396000	-0.746380932410331	61.78940574792
6434000	-0.742810345658024	61.3982903007265
6472000	-0.7315012480509	60.9734532048972
6510000	-0.728288795921317	60.6103052656733
6548000	-0.724332989069815	60.1790881785522
6586000	-0.711601689127277	59.7785461221753
6624000	-0.701999605107025	59.4280147217379
6662000	-0.692151163905574	59.0091116839538
6700000	-0.680783355442999	58.6291136650589
6738000	-0.672183661345075	58.1882414565383
6776000	-0.66073782444496	57.7278129030861
6814000	-0.652019452281013	57.2523331937812
6852000	-0.646568041884146	56.7836663153798
6890000	-0.656172421100609	56.2891086224418
6928000	-0.674707235024228	55.829918747834
6966000	-0.689114779198119	55.4601309226996
7004000	-0.701527282287028	55.158553710869
7042000	-0.703745835201888	54.8418532382478
7080000	-0.70641347755291	54.5236248267039
7118000	-0.70868452925936	54.2279650429677
7156000	-0.701478962732006	53.8999464742497
7194000	-0.701901830075127	53.5497447509195
7232000	-0.697682877794407	53.2145007914955
7270000	-0.692593128070368	52.8962938240449
7308000	-0.691858412448632	52.5795621406599
7346000	-0.685487749673424	52.2276601047926
7384000	-0.683823073519771	51.8963895599275
7422000	-0.681650763859638	51.5589272149601
7460000	-0.678142579365112	51.2408153444917
7498000	-0.676743199250045	50.8928503766294
7536000	-0.675415983408199	50.5847174624181
7574000	-0.676137689368132	50.225188638173
7612000	-0.672493092853053	49.9117894385202
7650000	-0.669184425462058	49.5978988293603
7688000	-0.666262604477334	49.2699874951174
7726000	-0.663432089040959	48.9671265797305
7764000	-0.662071427789642	48.646937445092
7802000	-0.658364147785184	48.3125395197062
7840000	-0.653196674913442	48.0147280900388
7878000	-0.650582945903444	47.729781512002
7916000	-0.648535200854555	47.393108021011
7954000	-0.645354965875586	47.0881136290921
7992000	-0.64152375078441	46.7607990025973
8030000	-0.63852267053234	46.4460616922347
8068000	-0.633633241554418	46.1487297663395
8106000	-0.636935782260011	45.8410945863511
8144000	-0.629218724110881	45.5274293286736
8182000	-0.625021226778918	45.2260553697275
8220000	-0.6233908732448	44.9313531691919
8258000	-0.618885054026634	44.6135402796606
8296000	-0.61504463762428	44.3052464198551
8334000	-0.611044974861354	43.9952124890209
8372000	-0.608728979470396	43.7054182363432
8410000	-0.608383988226034	43.4113761871542
8448000	-0.605847164589468	43.1003824089414
8486000	-0.600653960008479	42.7901597250216
8524000	-0.597981263749	42.4862208059631
8562000	-0.6011116138361	42.1946753036137
8600000	-0.594535839444388	41.9048913848463
8638000	-0.591771879483136	41.5888547689739
8676000	-0.592558001717493	41.2983446393906
8714000	-0.589555937965465	41.0052815763838
8752000	-0.589681330835047	40.7252328796714
8790000	-0.589274348642624	40.418859542003
8828000	-0.587088221975846	40.1361724622921
8866000	-0.585320994668896	39.8582611272025
8904000	-0.58362483212689	39.5947806962101
8942000	-0.580131214413707	39.3078824174585
8980000	-0.574448167636746	39.0008255258553
9018000	-0.573026424195465	38.7074041304017
9056000	-0.571813531286673	38.4190911208843
9094000	-0.570815069108429	38.1379072299451
9132000	-0.568607128568039	37.8483360131346
9170000	-0.569771605071661	37.563566588934
9208000	-0.568602128211109	37.2745434666128
9246000	-0.565832340181764	37.0007272856633
9284000	-0.567270565035664	36.7335947056869
9322000	-0.56357416222379	36.4424079885285
9360000	-0.568276429374038	36.1730833210869
9398000	-0.566770388808698	35.8764658669018
9436000	-0.564050169701665	35.6144333763445
9474000	-0.564979072929369	35.3407889257952
9512000	-0.561439123237405	35.0796505248585
9550000	-0.562917355696014	34.8188808342127
9588000	-0.563942757358266	34.5493940430228
9626000	-0.559277436969691	34.2747602524111
9664000	-0.561513616480908	33.9843142044526
9702000	-0.561556193111675	33.7361333347181
9740000	-0.563811446016712	33.4670534454608
9778000	-0.562139847216355	33.1998410903943
9816000	-0.561770454204943	32.9391905328601
9854000	-0.563536199191417	32.6798961026262
9892000	-0.560983676719133	32.4169965557566
9930000	-0.56130914990809	32.1594445600741
9968000	-0.564137506482602	31.8872095836571
10006000	-0.561865745163026	31.6270854156776
10044000	-0.563918818498596	31.3714412143711
10082000	-0.561646585567724	31.1067333312988
10120000	-0.561796243386646	30.8451981068859
10158000	-0.56294099054284	30.5941612283333
10196000	-0.565558698296789	30.3220330884663
10234000	-0.564789762077919	30.0591670840971
10272000	-0.568167532184792	29.806405850386
10310000	-0.569937800924572	29.5570108654808
10348000	-0.57187963966978	29.2817271236026
10386000	-0.57387104160541	29.0347321086153
10424000	-0.578379557729351	28.7862417273686
10462000	-0.580717692113101	28.5560340008528
10500000	-0.58261286337916	28.3103497754002
10538000	-0.586248939605112	28.0742546456502
10576000	-0.588833597356827	27.8382889929933
10614000	-0.588557776029123	27.6143306039736
10652000	-0.587283530200719	27.3857459679681
10690000	-0.589737354083211	27.1236719573312
10728000	-0.588536590754529	26.8853851828842
10766000	-0.588742946397125	26.6522525938375
10804000	-0.588898599727868	26.4121823268299
10842000	-0.589848237363434	26.1734646129179
10880000	-0.590238651695222	25.9175575797273
10918000	-0.586970431266338	25.6556727045659
10956000	-0.592054333244261	25.4153743774087
10994000	-0.594419049085921	25.1754682659705
11032000	-0.596138653365561	24.9410686830831
11070000	-0.598884757408524	24.6713109450744
11108000	-0.603350635111003	24.4295562650707
11146000	-0.606432315491641	24.2100856886711
11184000	-0.606107580146179	23.9583096570487
11222000	-0.609773924272825	23.7375058244116
11260000	-0.612408192595496	23.4921329204223
11298000	-0.617905548906775	23.2575340460854
11336000	-0.619995041147911	23.0478242293039
11374000	-0.622831840673443	22.7984642729475
11412000	-0.626519944673767	22.5717395340811
11450000	-0.628166330500846	22.3509338623407
11488000	-0.628102295163721	22.1197315067661
11526000	-0.633627631031937	21.907310961597
11564000	-0.633553674863858	21.6698681353142
11602000	-0.634446875601813	21.4447120176696
11640000	-0.636312479395936	21.2103751500657
11678000	-0.641251346789231	20.9806574191512
11716000	-0.640361044784245	20.745987301897
11754000	-0.642653917124255	20.4948353571867
11792000	-0.647608251358745	20.2552059494556
11830000	-0.651828911955171	20.0139629733837
11868000	-0.657522557917457	19.7850718176714
11906000	-0.664440561759241	19.5673687603076
11944000	-0.672632222670613	19.3522322621174
11982000	-0.677854200930995	19.203088330133
12020000	-0.676818581002066	19.0348381819944
12058000	-0.665691851316222	18.8168577332646
12096000	-0.658697606124256	18.5403635275879
12134000	-0.661999821572243	18.2908489954364
12172000	-0.666525769903128	18.0275309554061
12210000	-0.667996959316782	17.7851805253543
12248000	-0.671008574314932	17.5403502120338
12286000	-0.674415529545665	17.3069738816334
12324000	-0.675228200777341	17.0677236447481
12362000	-0.678406254026033	16.8169162403862
12400000	-0.682886371378469	16.580904007977
12438000	-0.686550038269899	16.3322289014167
12476000	-0.691569418635074	16.0755101104915
12514000	-0.693597689821161	15.8338136599009
12552000	-0.700312313223146	15.5819937710789
12590000	-0.706158096251587	15.3238819805318
12628000	-0.711558325553349	15.0803983406325
12666000	-0.716975568686472	14.8421687086247
12704000	-0.724833815452267	14.5790222561685
12742000	-0.734392520161176	14.3464334842177
12780000	-0.739362100664559	14.0847230161176
12818000	-0.748335945078284	13.8723723046726
12856000	-0.75437319365189	13.6357097913511
12894000	-0.761867228311621	13.4089335450856
12932000	-0.769195874012007	13.1875307733803
12970000	-0.773747887882339	12.9494326746614
13008000	-0.77822929618385	12.7003182751903
13046000	-0.783213275440712	12.4574889745199
13084000	-0.788588761200078	12.2125086408647
13122000	-0.793420508606932	11.9538402092261
13160000	-0.799295644791805	11.6898409571335
13198000	-0.807179486127647	11.4359110151765
13236000	-0.817449079513282	11.1579421518188
13274000	-0.825107363587832	10.8884204511391
13312000	-0.839509003743289	10.6114188586766
13350000	-0.849565329865052	10.3471067806926
13388000	-0.860126923963558	10.0868954292323
13426000	-0.87375596544812	9.80007916136844
13464000	-0.887346105435635	9.54013387816555
13502000	-0.905365259899541	9.27603400749837
13540000	-0.918292451501659	9.01639499723669
13578000	-0.932929030369138	8.74352238843257
13616000	-0.949455064236562	8.48369506182958
13654000	-0.965914112979762	8.2357963191307
13692000	-0.983749223760352	7.98971989543075
13730000	-1.0004143914797	7.72589236965772
13768000	-1.0172734681237	7.48585730640815
13806000	-1.03517741362117	7.23250583276692
13844000	-1.05429669633678	6.98114580849924
13882000	-1.07168915639757	6.73394664347679
13920000	-1.0890288221265	6.47855968777552
13958000	-1.10868628927971	6.21707456292176
13996000	-1.12807356773375	5.97050606716548
14034000	-1.14973553913678	5.72421313339591
14072000	-1.1685017822887	5.46613178369445
14110000	-1.19345931136816	5.22402756396832
14148000	-1.2144207956149	4.96401309568122
14186000	-1.23952336070755	4.7218304013125
14224000	-1.26390813250409	4.45691371797764
14262000	-1.29264166271702	4.21277988805294
14300000	-1.31747611407499	3.95555230319174
14338000	-1.34627763165907	3.7130240342051
14376000	-1.37496640581951	3.4549647728141
14414000	-1.40500997398221	3.19525786319598
14452000	-1.43881341476083	2.93730466906848
14490000	-1.46992402363087	2.66794331663797
14528000	-1.50313378016273	2.41831317828983
14566000	-1.54145778218368	2.16384875418878
14604000	-1.58084283543419	1.92388722875123
14642000	-1.62475563017969	1.66603776491902
14680000	-1.66572380387148	1.43809685803354
14718000	-1.71126522869501	1.19276810568791
14756000	-1.757836220368	0.980528120440252
14794000	-1.80707903746088	0.775433308584148
14832000	-1.86255252746711	0.579532457500963
14870000	-1.91809840084319	0.41081851033564
14908000	-1.97414798485064	0.258434670889782
14946000	-2.03266334532925	0.11318918771673
14984000	-2.0942164968576	0.0204281020825679
15022000	-2.15636235318497	-0.0715765503554959
15060000	-2.22088656460159	-0.131439137423988
15098000	-2.28474017504822	-0.147519038231821
15136000	-2.35365964293663	-0.151209693900121
15174000	-2.41708139102557	-0.136877092468765
15212000	-2.48297269287491	-0.0646151068755419
15250000	-2.54806151544155	0.0365732097061606
15288000	-2.61560802218561	0.188727179099198
15326000	-2.67601675346991	0.374764423529641
15364000	-2.73844325092426	0.635939714302236
15402000	-2.79316214686201	0.939132922458978
15440000	-2.83781071195687	1.33905774707572
15478000	-2.86391581946409	1.78208481531252
15516000	-2.85898024937293	2.299325608677
15554000	-2.81393097574034	2.69339512798308
15592000	-2.74702888412932	2.77623347877925
15630000	-2.69417035885419	2.45789559285249
15668000	-2.70246316895717	1.88563236914531
15706000	-2.77190845465573	1.45529458079769
15744000	-2.86702729797988	1.28338948976168
15782000	-2.96685545395246	1.40327885169526
15820000	-3.05799732550414	1.69453068202646
15858000	-3.13453199599133	2.09695009926823
15896000	-3.19468278663121	2.58870260713636
15934000	-3.23695613228489	3.12900729231587
15972000	-3.2644245382439	3.67862612572566
16010000	-3.27510952472625	4.25677685694205
16048000	-3.27349142065376	4.81669102130546
16086000	-3.26110504669523	5.32418967175177
16124000	-3.23943180184061	5.81579612553
16162000	-3.21539475940951	6.26588581318464
16200000	-3.17610463235482	6.65199831938599
16238000	-3.13193017347464	6.97515965264099
16276000	-3.0796069326142	7.26070660044612
16314000	-3.02737034137202	7.51234646103368
16352000	-2.97527462442396	7.68724287817692
16390000	-2.92600376100142	7.8258029530022
16428000	-2.87349894373493	7.9407282763469
16466000	-2.82330997163518	8.01582601616813
16504000	-2.77147882256531	8.03347161475496
16542000	-2.72411260255514	8.03357294021845
16580000	-2.67696766156519	7.98459287756282
16618000	-2.63948224115971	7.95339267980336
16656000	-2.59937757280683	7.8837570724427
16694000	-2.56215978157018	7.83337519240337
16732000	-2.52651704954501	7.7417362100519
16770000	-2.49296462028057	7.65124987632914
16808000	-2.4662233724	7.54086460826879
16846000	-2.43859128721433	7.45092814569379
16884000	-2.4128795458971	7.35157830864445
16922000	-2.38848626817326	7.2465723973467
16960000	-2.36642557471468	7.11432285860641
16998000	-2.34586319828814	6.97196776897533
17036000	-2.32544310391508	6.83562399956265
17074000	-2.31108840811512	6.66831263667048
17112000	-2.29583371579439	6.51542294817736
17150000	-2.2836132010779	6.35844679138194
17188000	-2.27527967172074	6.19315360406627
17226000	-2.26801708882707	6.01798328581665
17264000	-2.26177570816206	5.87461703828335
17302000	-2.25785775556256	5.76355065097706
17340000	-2.25580533550395	5.66722161680355
17378000	-2.25666617488062	5.55986825188567
17416000	-2.25579721295884	5.48238090941675
17454000	-2.25425599364872	5.41416648837762
17492000	-2.25438606727529	5.36682504316698
17530000	-2.25211081794625	5.33533030190457
17568000	-2.24615586191777	5.31522388133308
17606000	-2.23829690758113	5.29231138835785
