!Keysight Technologies N9918A: A.12.56
!Date: Thursday, 10 July 2025 06:28:56
!TimeZone: (UTC-08:00) Pacific Time (US & Canada)!Model: N9918A
!Serial: MY56072139
!GPS Latitude: 
!GPS Longitude: 
!GPS TimeStamp: 0001-01-01 00:00:00Z
!GPS Seconds Since Last Read: 0
!CHECKSUM:1927463936
!Correction: S11(ON U)
!S1P File: Measurement: S11:
# Hz S DB R 50
1000000	-0.129805178384746	21.3413956832352
1038000	-0.137757327120189	20.1246722063786
1076000	-0.128388110375253	18.9822263813849
1114000	-0.123278574950619	17.9124240363029
1152000	-0.104518445239039	16.8998627195838
1190000	-0.105617668362615	15.8754862571449
1228000	-0.105013339602	14.8868892671061
1266000	-0.0986781461856066	13.941709497591
1304000	-0.0929696559786947	13.1359961042214
1342000	-0.0832031274442306	12.2481821952058
1380000	-0.0925024009923666	11.4368814868479
1418000	-0.0813331721410891	10.5457430641785
1456000	-0.0821551448970112	9.86947522226678
1494000	-0.0675812556124271	9.10715310898034
1532000	-0.0644547264563022	8.33185295070552
1570000	-0.0750708586812568	7.69135004625297
1608000	-0.0717419397492811	6.94750175870881
1646000	-0.0648339143966734	6.27932820115676
1684000	-0.0519452519410829	5.6269601695198
1722000	-0.0648160352547383	4.93773572263396
1760000	-0.0646273290528397	4.26179004620706
1798000	-0.0625993143523092	3.69829912445788
1836000	-0.0574240650136195	3.04038056991725
1874000	-0.0525883328716224	2.37866993260188
1912000	-0.0532285599129036	1.81891712517571
1950000	-0.0608288016839718	1.19564044061623
1988000	-0.0560997785355423	0.544846233292182
2026000	-0.056029144717932	-0.117685108476033
2064000	-0.0906842620178258	-1.07759392267761
2102000	-0.0964243463510338	-1.81299632920774
2140000	-0.137516774840594	-2.77168048511348
2178000	-0.384470972459259	-3.74570224723265
2216000	-0.231646270486251	-1.57105380137783
2254000	-0.115136060368489	-2.91917257349984
2292000	-0.0923808390597669	-3.64489122637042
2330000	-0.0928681742195739	-4.35002746475642
2368000	-0.0869234355936042	-4.98301189960706
2406000	-0.0828745458188357	-5.65006030740218
2444000	-0.0922938010323107	-6.28139544148247
2482000	-0.0944846085810372	-6.96243821109916
2520000	-0.0823665020195252	-7.58628640038067
2558000	-0.0913461321295155	-8.13850575366973
2596000	-0.0904757584880216	-8.77105254603845
2634000	-0.105290066765301	-9.43976018034003
2672000	-0.109352260796694	-10.074880919954
2710000	-0.105066260629315	-10.7999802029562
2748000	-0.104065121544119	-11.4673525471732
2786000	-0.120764163032887	-12.3061025139389
2824000	-0.117278417487863	-13.0741944906447
2862000	-0.123723180229034	-13.6737335556187
2900000	-0.121720097591853	-14.6003784334863
2938000	-0.131220593068302	-15.3760673065822
2976000	-0.147755954529345	-16.4206586168562
3014000	-0.163069939359352	-17.3946885940402
3052000	-0.163161991060359	-18.3530630658297
3090000	-0.185609413886846	-19.4771690546662
3128000	-0.207721625570598	-20.5892822882409
3166000	-0.219018161309361	-21.9103716543675
3204000	-0.248225026344312	-23.2549597630732
3242000	-0.288820039316296	-24.9020180134399
3280000	-0.342389848819362	-26.7545985349418
3318000	-0.391203067527101	-28.7564223816116
3356000	-0.472513161167026	-31.1109934447126
3394000	-0.558613809377165	-33.9527252881942
3432000	-0.689690713475168	-37.3364720837828
3470000	-0.875098291677962	-41.503887783731
3508000	-1.20640203083126	-46.8795684381756
3546000	-1.58099078387421	-53.9434816971723
3584000	-2.34606109796276	-63.5564689117337
3622000	-3.66678241084975	-77.7242377103671
3660000	-6.1323881051768	-99.4194548716536
3698000	-10.676055707048	-141.834958644575
3736000	-11.7433235482672	132.709086972089
3774000	-7.00209777463751	82.1518128357407
3812000	-4.15990570688693	57.810726893256
3850000	-2.69192730862994	42.9443589021723
3888000	-1.83490546878525	32.6860217735534
3926000	-1.35506885359625	25.3325216357115
3964000	-1.03886880362446	19.6227977198597
4002000	-0.82355939620721	15.4391329452701
4040000	-0.678204360466494	11.9621530239553
4078000	-0.561184874769377	8.97750024436963
4116000	-0.488150740729282	6.64427981983726
4154000	-0.428569853163566	4.57871532479155
4192000	-0.372782257038747	2.69973819502788
4230000	-0.338085954475291	1.10120427644352
4268000	-0.307938648295193	-0.320420422154828
4306000	-0.285785804159093	-1.60398490233786
4344000	-0.260740751327673	-2.75013951564829
4382000	-0.248273953485198	-3.79676323684215
4420000	-0.23092078045577	-4.82016872239417
4458000	-0.223961568316821	-5.70478747149207
4496000	-0.20639264941618	-6.60628986989946
4534000	-0.216656129899258	-7.45410830656119
4572000	-0.183852002145513	-8.21145447898987
4610000	-0.173627239961234	-8.90253063632882
4648000	-0.187968183241035	-9.52467908311434
4686000	-0.187226492571389	-10.2818298967681
4724000	-0.176197982099175	-10.873259189001
4762000	-0.159031735144241	-11.5017386261604
4800000	-0.165239555288363	-12.1496651961882
4838000	-0.178816231839222	-12.7352277386191
4876000	-0.168258367696415	-13.1952698772686
4914000	-0.170366070752248	-13.780499261468
4952000	-0.16035427707829	-14.4033665026232
4990000	-0.162984882532441	-14.8942824217155
5028000	-0.165924850867957	-15.2862236790204
5066000	-0.174185673774055	-15.7578115312791
5104000	-0.171201831579093	-16.3170001662215
5142000	-0.165810133787961	-16.784004217593
5180000	-0.170386796111018	-17.1957548875993
5218000	-0.174734000784118	-17.7222783416343
5256000	-0.173622006532635	-18.1942625654635
5294000	-0.166323269070318	-18.6389124929866
5332000	-0.164146483721123	-19.0592231513658
5370000	-0.166535938945779	-19.487129860622
5408000	-0.180006662170227	-19.9178549132532
5446000	-0.158427092250001	-20.3062530763198
5484000	-0.168081050376095	-20.8714537896767
5522000	-0.174266737455337	-21.2630872914206
5560000	-0.17416123777357	-21.646926593624
5598000	-0.169664185916502	-22.0640277982751
5636000	-0.171404700469625	-22.5238738144804
5674000	-0.17311159123641	-22.8922490800098
5712000	-0.173733284648811	-23.3545135633852
5750000	-0.175300590528512	-23.7427940810026
5788000	-0.175973136236807	-24.116825828489
5826000	-0.178510161060136	-24.5728721028189
5864000	-0.192974134427756	-24.9636118824342
5902000	-0.185826580702658	-25.3119320556402
5940000	-0.174607088987717	-25.6509512291431
5978000	-0.192843065004052	-26.2072212692644
6016000	-0.17982043267462	-26.6034782241231
6054000	-0.203435228090052	-26.7905367224514
6092000	-0.205985224559734	-27.2600664352488
6130000	-0.200629523327477	-27.7104055296802
6168000	-0.181342572545189	-28.0822928343718
6206000	-0.190041794842873	-28.5455793178075
6244000	-0.217494296692493	-28.8815160797554
6282000	-0.183667390842817	-29.3013104268715
6320000	-0.203460430637232	-29.7713081184157
6358000	-0.208577834359674	-30.1711182686685
6396000	-0.215731188981016	-30.4997865171422
6434000	-0.212429720676255	-30.9733713169216
6472000	-0.229008167681049	-31.3811779095565
6510000	-0.211313818347853	-31.6738690319098
6548000	-0.227297921875429	-32.1355062680692
6586000	-0.225035555930525	-32.5289923216211
6624000	-0.206963745337932	-32.9296219980733
6662000	-0.238336972774991	-33.2774185177467
6700000	-0.236047507256726	-33.8217758447147
6738000	-0.249495082897183	-34.1459053068586
6776000	-0.256804737089725	-34.5848642982373
6814000	-0.231663056822116	-34.9987392414588
6852000	-0.248104695674504	-35.3437053043337
6890000	-0.251276140342488	-35.8065525595654
6928000	-0.229426646456344	-36.2910307764588
6966000	-0.244799305458635	-36.7979090530092
7004000	-0.248025715032579	-37.0274528984282
7042000	-0.2662230345322	-37.5016926750164
7080000	-0.256332231892072	-37.9425746031021
7118000	-0.267394810738752	-38.2474360705832
7156000	-0.273854209184675	-38.6999704436405
7194000	-0.264499765025822	-39.2475080934008
7232000	-0.286323209720625	-39.7790699470201
7270000	-0.271704176568819	-40.0044053974171
7308000	-0.277637441057337	-40.4384286418506
7346000	-0.302382931830294	-41.0376524993316
7384000	-0.283313188668481	-41.4326985664636
7422000	-0.307581519428393	-41.7949255458408
7460000	-0.308690190043291	-42.2840103380798
7498000	-0.313035431345298	-42.6756949650958
7536000	-0.314207034265658	-43.0793736257961
7574000	-0.335154517296232	-43.7668825822265
7612000	-0.311388883033782	-44.302517716994
7650000	-0.314990766823576	-44.4716736416845
7688000	-0.343577612659989	-44.9380442887121
7726000	-0.341841822769858	-45.4957149857429
7764000	-0.337294984041358	-46.0714020369166
7802000	-0.346549050231411	-46.4477144375476
7840000	-0.347994588342308	-46.9275732474862
7878000	-0.363554333755753	-47.384927531436
7916000	-0.352913853384555	-47.8487574276773
7954000	-0.359704485375634	-48.315342148294
7992000	-0.373811781558319	-48.8309767079459
8030000	-0.364371407078741	-49.4243316456924
8068000	-0.386563342902764	-49.9159904423267
8106000	-0.393503376279224	-50.317708353758
8144000	-0.411391738844687	-50.8530155562185
8182000	-0.392989580563748	-51.3904904433553
8220000	-0.394975900074009	-51.8448938383169
8258000	-0.407217684532237	-52.4209156398346
8296000	-0.422689044899984	-52.892663122807
8334000	-0.41244084218097	-53.4121469871211
8372000	-0.426317077553377	-54.0015269877713
8410000	-0.455993174880321	-54.4251663715945
8448000	-0.443697154997625	-55.1915173252239
8486000	-0.444560439961457	-55.5855142517263
8524000	-0.45188576328083	-56.1811138688418
8562000	-0.467240363733651	-56.6548790016978
8600000	-0.455174491658246	-57.2751038561771
8638000	-0.480118140031914	-57.8255527719019
8676000	-0.495560824830849	-58.4101145481095
8714000	-0.486659204493553	-58.9602965378878
8752000	-0.474562654356133	-59.6130977054687
8790000	-0.527284416317254	-60.1713561239352
8828000	-0.5192637742851	-60.8212314679362
8866000	-0.516504626944945	-61.1354534010208
8904000	-0.54654669608543	-61.9733277109989
8942000	-0.54410038796293	-62.693842432316
8980000	-0.580434583641967	-63.2369842402836
9018000	-0.592198987207671	-63.7279892481409
9056000	-0.582523829407094	-64.3727370105436
9094000	-0.568597986611968	-64.9060059341309
9132000	-0.570498566548201	-65.5206893633802
9170000	-0.599473455390533	-66.2821673534437
9208000	-0.607816829928236	-66.9133874134726
9246000	-0.629082575992193	-67.4178937534505
9284000	-0.608238329368609	-68.1624612192942
9322000	-0.639626356513124	-68.7842177084645
9360000	-0.640404172223039	-69.603361525031
9398000	-0.659820189981848	-70.1980311241516
9436000	-0.651771125471234	-70.9584981344269
9474000	-0.662165539226332	-71.6421823477246
9512000	-0.687703936575547	-72.4458782138852
9550000	-0.682417775898662	-73.1006552950553
9588000	-0.705006272825532	-73.8782062893487
9626000	-0.689736966430009	-74.4127111172188
9664000	-0.717490186183709	-75.2210753742731
9702000	-0.713250423926824	-76.1368012500528
9740000	-0.757762262916905	-76.777104827081
9778000	-0.747327328527806	-77.5311074596872
9816000	-0.77550209074681	-78.3665005843219
9854000	-0.776133147243623	-79.1200297123108
9892000	-0.803507116836388	-79.9710698750875
9930000	-0.792555304909762	-80.76290033324
9968000	-0.830999020036336	-81.6580231735782
10006000	-0.838818688892155	-82.2917054042868
10044000	-0.84696707666191	-83.1023832514208
10082000	-0.86668095558851	-84.1393616625156
10120000	-0.865393437312187	-84.9668094208195
10158000	-0.883450257728925	-85.9042108012879
10196000	-0.882259841947241	-86.8318044272148
10234000	-0.90740912941025	-87.7114184364717
10272000	-0.939254842620674	-88.4111032545611
10310000	-0.970009408641242	-89.4400177427439
10348000	-0.978783058191707	-90.4320994317983
10386000	-0.993596838750595	-91.1247076498468
10424000	-1.00670391431447	-91.9243296138751
10462000	-1.03115827215321	-93.0998289943377
10500000	-1.04428065242031	-94.0914469296658
10538000	-1.05305370743237	-95.0078141633395
10576000	-1.05808991908919	-96.0102068275207
10614000	-1.09925054063488	-97.0751442353032
10652000	-1.1022736298388	-97.7728593784676
10690000	-1.11163906724426	-98.9580850216305
10728000	-1.17078396081318	-100.249914377654
10766000	-1.14336093359794	-101.201240329457
10804000	-1.17518442903504	-102.153534536856
10842000	-1.19702665671072	-103.301778628482
10880000	-1.20939205005109	-104.316246486735
10918000	-1.25759837969324	-105.600200196352
10956000	-1.25702115003154	-106.566446069225
10994000	-1.27338539063522	-107.800473398251
11032000	-1.30780448371762	-108.958419827428
11070000	-1.30679663275976	-110.104629352399
11108000	-1.31208429263233	-111.191822406125
11146000	-1.36766641160177	-112.50265923645
11184000	-1.37735019589494	-113.647861926505
11222000	-1.39341982703685	-115.048965938506
11260000	-1.42693530066258	-116.245343488863
11298000	-1.43820004652612	-117.445258110492
11336000	-1.47778907554286	-118.697938088076
11374000	-1.51209891757398	-120.073367917889
11412000	-1.53348915010733	-121.087583900778
11450000	-1.559312025814	-122.844058038577
11488000	-1.58027986984998	-124.092012655456
11526000	-1.61160458395383	-125.286235650148
11564000	-1.62504139418778	-126.731927126495
11602000	-1.6308034231811	-128.158934300455
11640000	-1.65312439879925	-129.423088805727
11678000	-1.69175950266734	-131.002665240695
11716000	-1.73357626190723	-132.388766764399
11754000	-1.73253629202938	-134.022360434552
11792000	-1.75730379957324	-135.384565596292
11830000	-1.81248598824513	-136.895271146578
11868000	-1.85788762828997	-138.3746809004
11906000	-1.89196562993832	-139.804940938825
11944000	-1.89037483630492	-141.469835364479
11982000	-1.93603514839513	-142.850121141942
12020000	-1.95851291003504	-144.520332296997
12058000	-1.966047424341	-145.999716224083
12096000	-1.99399266150657	-147.558893830299
12134000	-2.0276157583771	-149.277961921057
12172000	-2.10179414226443	-151.083238475813
12210000	-2.10688921248369	-152.648613683303
12248000	-2.12894423515679	-154.240255558958
12286000	-2.19254223359192	-156.053854573229
12324000	-2.22260839773689	-157.719613292838
12362000	-2.2579265057957	-159.415743219091
12400000	-2.28887248697477	-161.084187959863
12438000	-2.31814515050437	-162.825710519071
12476000	-2.40201174110942	-164.693849397462
12514000	-2.41727580104216	-166.350049564039
12552000	-2.47832697210401	-168.191271768378
12590000	-2.51501422248267	-169.856812292148
12628000	-2.54570579155548	-171.55251034584
12666000	-2.60583602169012	-173.33275420436
12704000	-2.66625819477562	-175.099548019539
12742000	-2.72641038541668	-176.772523407517
12780000	-2.81951119325802	-178.739907240015
12818000	-2.8364463525403	179.752417743344
12856000	-2.89854263792658	178.136441603523
12894000	-2.93532687682064	176.339833804428
12932000	-2.9879949492282	174.599676412178
12970000	-3.05621376622677	173.056621561679
13008000	-3.13259510716255	171.614195805616
13046000	-3.17494909236965	169.9917748648
13084000	-3.22641285636206	168.574246850869
13122000	-3.30840811489306	166.977692451066
13160000	-3.29931866712058	165.709906014241
13198000	-3.36921794343252	164.098658078591
13236000	-3.40886202176366	162.777451037451
13274000	-3.42954835637273	161.439173678276
13312000	-3.43832621167745	160.119222185301
13350000	-3.44816087142174	158.822471568188
13388000	-3.43633833736578	157.56485415433
13426000	-3.43540024631399	156.239664373379
13464000	-3.44059023831328	154.826236355706
13502000	-3.41982505932323	153.57244175867
13540000	-3.38100837122908	152.162021472972
13578000	-3.3445987061193	150.864923315941
13616000	-3.30989234131248	149.260400454379
13654000	-3.2617523776418	147.93171530923
13692000	-3.23162177030698	146.425413229456
13730000	-3.1694809877256	144.922643820786
13768000	-3.14402902457704	143.251848485796
13806000	-3.0910814147978	141.966494448631
13844000	-3.04845915001744	140.138650064706
13882000	-3.00595323283972	138.559561680331
13920000	-2.93340500228217	137.052489876703
13958000	-2.89893560996692	135.450332287988
13996000	-2.84953250594471	133.936009457525
14034000	-2.80322395497449	132.221841372022
14072000	-2.75951720060182	130.626796527387
14110000	-2.73297851869631	128.906023546948
14148000	-2.67521735388324	127.435803622929
14186000	-2.64177995168413	125.758559448424
14224000	-2.61650199989624	124.038665735464
14262000	-2.56989067356683	122.431174521656
14300000	-2.5179869297114	121.010125043048
14338000	-2.51612915314909	119.258306022451
14376000	-2.48550890155589	117.635512776726
14414000	-2.45573852615995	116.249761776098
14452000	-2.42871259974162	114.499470853591
14490000	-2.37950548833375	112.873106170648
14528000	-2.36935393715217	111.444074158297
14566000	-2.36146187523276	109.742900391924
14604000	-2.32080079651262	108.221635812368
14642000	-2.29890629751414	106.685442368681
14680000	-2.28416169607491	105.064596945732
14718000	-2.26736867634704	103.516653292063
14756000	-2.24009245330476	102.05152364413
14794000	-2.21833051091824	100.467517897582
14832000	-2.22413264555002	98.8961893773441
14870000	-2.18164965737115	97.3250528579502
14908000	-2.18514109022394	95.874858968284
14946000	-2.15384635934832	94.4517931950722
14984000	-2.1965846660203	92.8729205681202
15022000	-2.15489813332856	91.3338912362923
15060000	-2.15333398598006	89.8545596442641
15098000	-2.17611112918742	88.1794555691439
15136000	-2.15319874020151	86.456547925461
15174000	-2.19438415594728	84.7741105320219
15212000	-2.23850579693556	83.2058376387762
15250000	-2.23909381208007	81.6219286277747
15288000	-2.2797080803093	79.8413010605585
15326000	-2.38172374040143	77.9455517726365
15364000	-2.52258141034553	76.1126823415438
15402000	-2.65175384682414	74.1706457469565
15440000	-2.89724688844306	72.6489337857588
15478000	-3.21297252072537	71.2113681309178
15516000	-3.67133306818515	70.6653769052168
15554000	-4.10202904074523	71.7260363030951
15592000	-4.35962083146527	74.9018434457771
15630000	-4.19945846168995	78.185494347806
15668000	-3.80394956370447	80.0754613374835
15706000	-3.35428163408151	80.1607321254479
15744000	-3.01565993795412	78.9821762317457
15782000	-2.76127770865954	77.4660470410932
15820000	-2.54215078244963	75.866863500298
15858000	-2.41610071002944	74.3535099161024
15896000	-2.3328976159795	72.7437966925027
15934000	-2.28033787918733	71.0867315499247
15972000	-2.21071528062267	69.6052134786996
16010000	-2.1907710754793	68.1516515169974
16048000	-2.15533987368584	66.6927852812814
16086000	-2.14936075203252	65.4536432270516
16124000	-2.14774450082114	64.1410909028319
16162000	-2.12727350110352	62.8698202685865
16200000	-2.10530018319608	61.5042462220149
16238000	-2.1002661545375	60.5574163836055
16276000	-2.11938909999158	59.4433410576775
16314000	-2.13230486317557	58.3236947881891
16352000	-2.12551127017466	57.0724978315894
16390000	-2.13361059900592	56.1398138762621
16428000	-2.14665472538965	54.8543590356139
16466000	-2.14957527927324	53.8991857496647
16504000	-2.16842990545968	52.7697503903608
16542000	-2.17466627616076	51.7751014815656
16580000	-2.19052535523148	50.8080130700576
16618000	-2.19775239654773	49.705222068461
16656000	-2.20412597147901	48.4890181638197
16694000	-2.20548891258138	47.6025925514356
16732000	-2.23177863791443	46.4903328188054
16770000	-2.25071254338409	45.3663282321222
16808000	-2.27649734750317	44.3751248760296
16846000	-2.28194949112258	43.1881791139137
16884000	-2.29396667433576	42.1748287299526
16922000	-2.33334829063886	40.8854771145145
16960000	-2.34036734889118	39.7716935572246
16998000	-2.38646411244065	38.5933578106018
17036000	-2.42513424398424	37.3974363048191
17074000	-2.48191723573012	36.2327832689027
17112000	-2.5191777168006	35.0091934808223
17150000	-2.56008828158229	33.7814833547693
17188000	-2.6221749637183	32.4670292496864
17226000	-2.68133295800052	31.1893024185212
17264000	-2.76758914895325	29.8841533430736
17302000	-2.82941838823885	28.6366507461487
17340000	-2.91679768523773	27.2470158920246
