!Keysight Technologies N9918A: A.12.56
!Date: Thursday, 10 July 2025 06:22:01
!TimeZone: (UTC-08:00) Pacific Time (US & Canada)!Model: N9918A
!Serial: MY56072139
!GPS Latitude: 
!GPS Longitude: 
!GPS TimeStamp: 0001-01-01 00:00:00Z
!GPS Seconds Since Last Read: 0
!CHECKSUM:0474896419
!Correction: S11(ON U)
!S1P File: Measurement: S11:
# Hz S DB R 50
1000000	-0.158368239797311	22.7938052583119
1038000	-0.16074597350836	21.5795791247464
1076000	-0.151532515914191	20.5529872045745
1114000	-0.148570344022394	19.557080925491
1152000	-0.127713859011678	18.626281481582
1190000	-0.132598240503626	17.6401638816927
1228000	-0.133587426735807	16.7757307338149
1266000	-0.137617575188645	15.8683050423981
1304000	-0.124529386098197	15.1500081656792
1342000	-0.117891467995088	14.3310579216998
1380000	-0.120074657988709	13.557044705246
1418000	-0.10526265515825	12.850082922225
1456000	-0.112985864180156	12.1956205900076
1494000	-0.100517545041178	11.4821035056906
1532000	-0.0965781761816405	10.869715596125
1570000	-0.105510111324151	10.2964418111116
1608000	-0.095539019600731	9.67951075155949
1646000	-0.0865718600596885	9.14193182287853
1684000	-0.0940196278460299	8.48449705466042
1722000	-0.0940326768594347	7.89729404129832
1760000	-0.0941917286330204	7.41746113372788
1798000	-0.0889314352991133	6.90053591249877
1836000	-0.0860321365307397	6.34787160836567
1874000	-0.0716172273876167	5.87829549364884
1912000	-0.0832887883389805	5.46261516410578
1950000	-0.0857225863546144	4.95661724568628
1988000	-0.0810259744077973	4.48203344234856
2026000	-0.0741341654977578	3.97530086835893
2064000	-0.077426172781086	3.46390893874299
2102000	-0.0861911936268029	3.00753011020404
2140000	-0.0903754004595267	2.53877667811478
2178000	-0.0879002295071226	2.07301481948743
2216000	-0.0846900816316216	1.71817299521628
2254000	-0.0913196634457698	1.27438148455862
2292000	-0.0935308509676446	0.886307708270553
2330000	-0.085080885554625	0.463831449082272
2368000	-0.0832480105103172	0.152527484366376
2406000	-0.0885803455784241	-0.260067376714109
2444000	-0.0844225299223268	-0.659775258299493
2482000	-0.0903976079170844	-1.03829918988217
2520000	-0.087073696632042	-1.40121356457553
2558000	-0.0781376156441126	-1.77668763155572
2596000	-0.0790285350048593	-2.08798233466079
2634000	-0.0927894611359885	-2.49357873531675
2672000	-0.0986065340493368	-2.82017661951942
2710000	-0.0791754987891675	-3.17354741355117
2748000	-0.0799868171541629	-3.53621216097902
2786000	-0.0885274320515787	-3.95723495604466
2824000	-0.0813750563176465	-4.33835553331828
2862000	-0.0730702877351178	-4.52452041303936
2900000	-0.0914885179898308	-4.92094927073925
2938000	-0.0818208476948963	-5.11483014060714
2976000	-0.0806875332712575	-5.63639821423295
3014000	-0.0813335028343632	-5.91250030755347
3052000	-0.0820278239724455	-6.16193714785933
3090000	-0.0879560931870903	-6.54724296092989
3128000	-0.0824925890804669	-6.8744479991582
3166000	-0.0795173183504585	-7.21881716000911
3204000	-0.0823831623104144	-7.36871776410904
3242000	-0.0873698135193665	-7.72574434825656
3280000	-0.108382026078061	-8.08353301827547
3318000	-0.0810748081160804	-8.41431616841492
3356000	-0.0956329790605853	-8.73154028638881
3394000	-0.0815463734364699	-8.943768924913
3432000	-0.100396085704257	-9.25855306901312
3470000	-0.0920690041394387	-9.49838273341832
3508000	-0.146593970905734	-9.93393383699637
3546000	-0.0826060403820689	-10.1652962697338
3584000	-0.0896198672607401	-10.4220853721898
3622000	-0.0908869907479607	-10.8254498939265
3660000	-0.100153031853493	-11.0979325302226
3698000	-0.0941264171306988	-11.3709641737702
3736000	-0.0912904163694726	-11.7086101826012
3774000	-0.0840363951594288	-11.8730844657882
3812000	-0.0992552451599899	-12.2510326384568
3850000	-0.097359770252244	-12.5893371063196
3888000	-0.105961883815945	-12.8741411676758
3926000	-0.0991329923826058	-13.0940298605151
3964000	-0.120078319624027	-13.4191705323612
4002000	-0.0793597108229163	-13.737677794492
4040000	-0.0989841497440188	-13.8972021851541
4078000	-0.10809837312681	-14.3021047350577
4116000	-0.104506852156437	-14.4297151549969
4154000	-0.113223786928955	-14.7577041741059
4192000	-0.100789476016111	-15.1387109619376
4230000	-0.105023215947396	-15.4733398904208
4268000	-0.105560365620294	-15.7164107427803
4306000	-0.105163551695581	-15.9658953266891
4344000	-0.103168099539786	-16.3061011017659
4382000	-0.118858294239106	-16.4142458215644
4420000	-0.117418471980324	-16.7755841315357
4458000	-0.110863497099319	-17.0311287809756
4496000	-0.119797435420337	-17.4304523349456
4534000	-0.123771308116564	-17.7019817789565
4572000	-0.107852743524038	-17.9588409461595
4610000	-0.112722054485739	-18.1570016611815
4648000	-0.127580636113646	-18.497193005905
4686000	-0.121810387826252	-18.7836505111642
4724000	-0.120628001597944	-19.0771553185121
4762000	-0.0973238019138249	-19.3359493214095
4800000	-0.113802152240428	-19.63273828198
4838000	-0.128711926847816	-19.96194059119
4876000	-0.108822368621271	-20.1169267600434
4914000	-0.144091147673062	-20.4490992087037
4952000	-0.123165542357928	-20.8107061508726
4990000	-0.13437458011053	-21.1224066986401
5028000	-0.122886826159921	-21.2392347358972
5066000	-0.143779009429086	-21.52311532712
5104000	-0.133691832794014	-21.8813191823712
5142000	-0.135457822021123	-22.1811013910206
5180000	-0.144605339006162	-22.4742057317239
5218000	-0.14916479106416	-22.7504007138504
5256000	-0.13798601598517	-23.0385456945559
5294000	-0.157199821514139	-23.3480713926489
5332000	-0.147155834375137	-23.6160045208062
5370000	-0.158851352509315	-23.8651218748831
5408000	-0.164770675796724	-24.1295586445191
5446000	-0.145538173318894	-24.4099737122653
5484000	-0.160006040892882	-24.8473888546635
5522000	-0.146511914501354	-25.0600400529478
5560000	-0.15622348175732	-25.3731308502779
5598000	-0.172192516158868	-25.6300122342763
5636000	-0.152298610716714	-25.9563048052621
5674000	-0.151763093476029	-26.2142214325496
5712000	-0.161540286307947	-26.5188408828738
5750000	-0.154118772944088	-26.9461916307604
5788000	-0.170230575038624	-27.1855750761623
5826000	-0.168904184193742	-27.4357415614617
5864000	-0.187714721766427	-27.7775562892865
5902000	-0.175866583354711	-28.1454716767926
5940000	-0.159307833179012	-28.2857357345223
5978000	-0.175315169269671	-28.6888689166872
6016000	-0.174898914234405	-28.9922341748792
6054000	-0.178635916136688	-29.2000942876712
6092000	-0.187296831939207	-29.4395008111836
6130000	-0.191187209766177	-29.8554920937191
6168000	-0.174352070859684	-30.09730100339
6206000	-0.182514936608652	-30.4714086068791
6244000	-0.188970703967687	-30.5812422920187
6282000	-0.174403898673219	-31.1554006407946
6320000	-0.192705573741769	-31.3380451466536
6358000	-0.198711358271827	-31.6678664203133
6396000	-0.204104619161101	-32.0351749624852
6434000	-0.201392622748271	-32.3855442821287
6472000	-0.208015770144272	-32.8528840187465
6510000	-0.216617680457881	-32.9807931693852
6548000	-0.226670748934579	-33.3385232899188
6586000	-0.233219484710634	-33.59783280993
6624000	-0.238966192760602	-33.993102801548
6662000	-0.280836860322635	-34.22357261556
6700000	-0.273218692803099	-34.526861966945
6738000	-0.274979942871234	-34.5461961305475
6776000	-0.264689304592356	-34.792567322913
6814000	-0.231000413756041	-35.243745146958
6852000	-0.244773982741262	-35.5491654809032
6890000	-0.243303014494826	-35.9898266509826
6928000	-0.222259547758841	-36.344814087151
6966000	-0.237057964321939	-36.7513214554549
7004000	-0.231767029350924	-36.848455679733
7042000	-0.251737224182766	-37.3769571840592
7080000	-0.239519603903738	-37.6729489188233
7118000	-0.236091330397126	-37.9467790082829
7156000	-0.24683461119566	-38.3171965846879
7194000	-0.240634968295319	-38.7889224047483
7232000	-0.257878926604035	-39.154264361173
7270000	-0.252612315137291	-39.4265966533558
7308000	-0.25137211628768	-39.6594583919446
7346000	-0.268110664501778	-40.2759829567234
7384000	-0.2510762969964	-40.4828248205413
7422000	-0.268166236706991	-40.7367359333346
7460000	-0.266176525746194	-41.3086679203701
7498000	-0.274781552164755	-41.5027413735661
7536000	-0.279806601435309	-41.869843657541
7574000	-0.290035557886868	-42.3549019416649
7612000	-0.272255355473124	-42.8119054254421
7650000	-0.278786627548712	-42.9061069789015
7688000	-0.289215357924704	-43.3329907422112
7726000	-0.300733129479218	-43.7160861191664
7764000	-0.310701200884634	-44.195674397761
7802000	-0.300369243632747	-44.5975513540097
7840000	-0.298638628274439	-44.8896506304803
7878000	-0.304880873980002	-45.3301877044822
7916000	-0.303360339961723	-45.654992000677
7954000	-0.309908116793623	-46.0246422938807
7992000	-0.304959859037125	-46.408611043097
8030000	-0.296030229620578	-46.8268952519432
8068000	-0.322419832086303	-47.314492903286
8106000	-0.321370747333211	-47.6372337798995
8144000	-0.342811163575972	-48.0093150915824
8182000	-0.323626411521359	-48.4623821670643
8220000	-0.324990432071306	-48.8353777234044
8258000	-0.334104727204931	-49.3149027816605
8296000	-0.342944031417321	-49.5639076988971
8334000	-0.337206400458198	-50.0107070572635
8372000	-0.358815861601275	-50.4176895717821
8410000	-0.37533206275989	-50.7781194668868
8448000	-0.354845361417195	-51.4675972782849
8486000	-0.356595216087616	-51.6918535815705
8524000	-0.366680257055707	-52.183447622058
8562000	-0.372581979884948	-52.5720519831154
8600000	-0.367793004332768	-52.913420941208
8638000	-0.387474744094494	-53.3548294728054
8676000	-0.408075275854586	-53.9130029839364
8714000	-0.403126053206584	-54.3439860236181
8752000	-0.375814048766628	-54.8208624226307
8790000	-0.418885058150243	-55.1260369374959
8828000	-0.417771365898537	-55.7540864596238
8866000	-0.413637915600261	-56.0724150540991
8904000	-0.428946735855794	-56.6360423956591
8942000	-0.419786368015866	-57.1278966263909
8980000	-0.431330808172926	-57.4729514589717
9018000	-0.45773646972289	-57.9580980859404
9056000	-0.445361915489241	-58.3971832420184
9094000	-0.450192033410213	-58.9950306767091
9132000	-0.4449416130656	-59.2687616035618
9170000	-0.464325452909363	-59.8648751095232
9208000	-0.467156738718151	-60.2985177429595
9246000	-0.489791250944293	-60.8018103355342
9284000	-0.470393928368886	-61.1651844889957
9322000	-0.495751926595732	-61.7924925055866
9360000	-0.485362217887978	-62.326399036964
9398000	-0.504375978015501	-62.7185946297789
9436000	-0.492486630698032	-63.3938432415323
9474000	-0.491521414968678	-63.8047190088736
9512000	-0.527867739249099	-64.4450140635065
9550000	-0.523007308707007	-64.9009351158268
9588000	-0.522858495864167	-65.4558136658551
9626000	-0.524073136068626	-65.9143405569572
9664000	-0.536643718841268	-66.4825464358704
9702000	-0.536012104164187	-67.0644631718834
9740000	-0.555459528946886	-67.4978915164134
9778000	-0.55097815512532	-67.9719874433328
9816000	-0.550746916759549	-68.5800826080178
9854000	-0.56029778543206	-69.0982683659935
9892000	-0.574154175020997	-69.7152341607382
9930000	-0.57069970238087	-70.341783943889
9968000	-0.603064085203291	-70.9167947434343
10006000	-0.598425683692017	-71.3639958579336
10044000	-0.623583794848434	-71.8950726660739
10082000	-0.606104641505349	-72.6541146733172
10120000	-0.616528410162987	-73.3358611235513
10158000	-0.642483234114097	-73.86821642688
10196000	-0.610385953641285	-74.5308414151485
10234000	-0.646917753104009	-75.2238890249727
10272000	-0.667780921873169	-75.7092180403328
10310000	-0.685774482936846	-76.3500828298589
10348000	-0.669219173939171	-77.1639333345972
10386000	-0.689116767035902	-77.6463193113539
10424000	-0.70594059466568	-78.1099421009175
10462000	-0.71708723417548	-78.9597207520165
10500000	-0.712905131753618	-79.5450815671589
10538000	-0.717534242881454	-80.251757620864
10576000	-0.732041009929811	-80.8773208816416
10614000	-0.761984542293591	-81.6048093577315
10652000	-0.727561428204163	-82.113098606132
10690000	-0.7615122022969	-82.857580952427
10728000	-0.796692378491774	-83.7129500706955
10766000	-0.757011597628639	-84.3676511878659
10804000	-0.806827984982412	-84.9403152540726
10842000	-0.81331522388811	-85.745792449869
10880000	-0.799914269336834	-86.4797396931607
10918000	-0.847533605036516	-87.3002524359326
10956000	-0.850739812467634	-87.9370689875478
10994000	-0.859935276221253	-88.7990146899997
11032000	-0.849241218198369	-89.571287894262
11070000	-0.865097721430853	-90.2854524509098
11108000	-0.885066866652891	-90.8595165085947
11146000	-0.89766494118786	-91.8176790312798
11184000	-0.889097643844549	-92.5124464394365
11222000	-0.908204926727898	-93.5798138653035
11260000	-0.934299764590423	-94.2168591481768
11298000	-0.942375855120207	-94.942332501725
11336000	-0.97724560160772	-95.6640493551919
11374000	-0.988357526260783	-96.6313156547835
11412000	-0.988009302386767	-97.2986363339643
11450000	-0.986242048262988	-98.3781569363461
11488000	-1.00837730637918	-99.1915384343876
11526000	-1.03769131385052	-99.9254143418037
11564000	-1.04076824828598	-100.876271201914
11602000	-1.05954089474468	-101.742270910518
11640000	-1.02536557866455	-102.365510032017
11678000	-1.05598707129183	-103.416958966264
11716000	-1.09231559775192	-104.530448131539
11754000	-1.10789185492614	-105.438716582188
11792000	-1.09085719100538	-106.341333646351
11830000	-1.11761509921976	-107.141666491472
11868000	-1.1597386310777	-108.095917273782
11906000	-1.17024034869115	-108.909913969523
11944000	-1.16312402440153	-110.040574525638
11982000	-1.18139180467775	-111.062676233079
12020000	-1.18710018861838	-111.97144774077
12058000	-1.18362680964841	-112.711677731588
12096000	-1.20612901083517	-113.830659547572
12134000	-1.21906871124144	-114.912553186665
12172000	-1.23531843640725	-115.984477223626
12210000	-1.24226114053306	-117.020742089604
12248000	-1.27249236160486	-118.180204478881
12286000	-1.27066911235939	-119.0994749401
12324000	-1.29996105873473	-120.145819960064
12362000	-1.29527714457083	-121.231171600736
12400000	-1.32004524229917	-122.123962628503
12438000	-1.335586879941	-123.385700625094
12476000	-1.37409045198815	-124.539514776167
12514000	-1.38999528956803	-125.700177024686
12552000	-1.42092811943454	-126.888445750839
12590000	-1.4147353090206	-128.020987589633
12628000	-1.41349774143461	-129.0125453357
12666000	-1.43073885511309	-130.000009384789
12704000	-1.47099664600539	-131.283536370266
12742000	-1.44815537333147	-132.351538236162
12780000	-1.47789011782802	-133.529386824472
12818000	-1.4973461532257	-134.728442067476
12856000	-1.52531328583955	-136.05322319568
12894000	-1.52701737476558	-137.356332918432
12932000	-1.53320070916349	-138.576791852515
12970000	-1.54068856175007	-139.702019829874
13008000	-1.54613161836706	-140.936893953077
13046000	-1.56321273547971	-142.218341180714
13084000	-1.60073604971752	-143.566003364994
13122000	-1.58828386875033	-144.709971271866
13160000	-1.63575201592631	-145.936477696761
13198000	-1.64521777512444	-147.120181112461
13236000	-1.65294940172511	-148.449668821782
13274000	-1.67808297110043	-149.742863033497
13312000	-1.67230414926125	-151.062519745684
13350000	-1.69788745292395	-152.322224405446
13388000	-1.68444898685005	-153.812003010899
13426000	-1.71086795624512	-155.034313792909
13464000	-1.71419369902259	-156.351501255281
13502000	-1.74223059622317	-157.806901258966
13540000	-1.73623389444131	-159.063235466458
13578000	-1.75741133840467	-160.315274952496
13616000	-1.76394245974757	-161.74764897927
13654000	-1.77700897384601	-163.157176550232
13692000	-1.77410275090288	-164.600492241205
13730000	-1.81399203838099	-165.974582687259
13768000	-1.80157364497086	-167.286852321442
13806000	-1.81665147705135	-168.606868960796
13844000	-1.82007695638119	-170.1028641269
13882000	-1.821652236584	-171.605895379228
13920000	-1.83562822747776	-172.918958386429
13958000	-1.84530697514979	-174.38544408463
13996000	-1.83614581285876	-175.653986516098
14034000	-1.85424841739072	-177.170020203707
14072000	-1.88688298216397	-178.564151216724
14110000	-1.88545299866637	179.956923917405
14148000	-1.87382734420672	178.662331454022
14186000	-1.87675202395674	177.176191395205
14224000	-1.88461576752455	175.724290673965
14262000	-1.9010856279629	174.371527499659
14300000	-1.87318631202447	172.949730441631
14338000	-1.89670009152819	171.528167044697
14376000	-1.91331401561253	170.011678318022
14414000	-1.92804220873778	168.745535376205
14452000	-1.89531033376513	167.233675980039
14490000	-1.89253645727813	165.857409547464
14528000	-1.90620629795652	164.379840500155
14566000	-1.90969155979731	163.034744148542
14604000	-1.88954857891655	161.551878644357
14642000	-1.90176628502079	160.077972364431
14680000	-1.91232270665712	158.666951014151
14718000	-1.91883367217407	157.245105438001
14756000	-1.90458358234309	155.847410235113
14794000	-1.9127423595684	154.405994981735
14832000	-1.90472715484538	153.106821352968
14870000	-1.87882798789313	151.447745257175
14908000	-1.89282387257375	150.171211814468
14946000	-1.87878016812466	148.939088559504
14984000	-1.87825200514293	147.555807917363
15022000	-1.86780155040541	146.126089062266
15060000	-1.87236374087382	144.702127670619
15098000	-1.8683311573643	143.32392675599
15136000	-1.86252491942542	142.01903902212
15174000	-1.86031146014862	140.506218684599
15212000	-1.86917474813305	139.207058311871
15250000	-1.85480015905751	137.891390167355
15288000	-1.82515234639723	136.57719837354
15326000	-1.84610020564456	135.294060921611
15364000	-1.84913257877517	133.903549867016
15402000	-1.81742174702471	132.531288900155
15440000	-1.82609607564547	131.292658003369
15478000	-1.81551940123997	130.005701931919
15516000	-1.83269132298677	128.630069209587
15554000	-1.81425625017435	127.335543667613
15592000	-1.77785813803876	126.253237177263
15630000	-1.79577625177039	124.956543559293
15668000	-1.77844291663305	123.742038868737
15706000	-1.75809926695519	122.580940202823
15744000	-1.75523282698536	121.226452029893
15782000	-1.76107937814698	119.924931237349
15820000	-1.71830175290972	118.704828145965
15858000	-1.70343031443112	117.630717860414
15896000	-1.71681670276938	116.364642582946
15934000	-1.7242080519976	115.096461377476
15972000	-1.68667536280206	113.980669323006
16010000	-1.68698329858033	112.700936727951
16048000	-1.66860579138468	111.486133779921
16086000	-1.66092343050763	110.340931708922
16124000	-1.67012254244704	109.103299552783
16162000	-1.65580995961656	107.973071080101
16200000	-1.63616849642226	106.557141269845
16238000	-1.61372723976129	105.648479734447
16276000	-1.62368394639978	104.678533981144
16314000	-1.60876774176153	103.509242898848
16352000	-1.60016742329284	102.308439597267
16390000	-1.6227872124255	101.299510457137
16428000	-1.59850957756741	99.998240910908
16466000	-1.58547314956744	99.0635330752011
16504000	-1.59436594802803	97.9061631327297
16542000	-1.59287728857815	96.9366658647076
16580000	-1.58062308739627	95.9019661023948
16618000	-1.56992560529004	94.7450520872866
16656000	-1.57308840342325	93.5532147755563
16694000	-1.5526341862104	92.7740019090639
16732000	-1.54896603680013	91.5056241370323
16770000	-1.54459246489285	90.4230829173076
16808000	-1.5565595419852	89.5725066245044
16846000	-1.53371890970993	88.504776251031
16884000	-1.53893083429374	87.5097571907192
16922000	-1.52701121723933	86.365989988982
16960000	-1.51907534736935	85.5244456297008
16998000	-1.51672804211079	84.241660351709
17036000	-1.52638821140816	83.2795269996835
17074000	-1.52408809166016	82.3267780730889
17112000	-1.51499731936169	81.3459040482446
17150000	-1.52626599117795	80.300359603713
17188000	-1.51022218091632	79.223152935494
17226000	-1.5282931303331	78.3647475828898
17264000	-1.54007162698634	77.2482366385983
