!Keysight Technologies N9918A: A.12.56
!Date: Thursday, 10 July 2025 06:55:51
!TimeZone: (UTC-08:00) Pacific Time (US & Canada)!Model: N9918A
!Serial: MY56072139
!GPS Latitude: 
!GPS Longitude: 
!GPS TimeStamp: 0001-01-01 00:00:00Z
!GPS Seconds Since Last Read: 0
!CHECKSUM:1623457227
!Correction: S11(ON U)
!S1P File: Measurement: S11:
# Hz S DB R 50
1000000	-1.77572096459478	16.533503345687
1038000	-1.67695848810875	15.9234469759518
1076000	-1.58878364988969	15.32990599139
1114000	-1.50567319325154	14.7270481892764
1152000	-1.42805397540688	14.1595881056149
1190000	-1.35643316589322	13.579392211463
1228000	-1.28977404271487	13.0152428474593
1266000	-1.22620521191042	12.465284634146
1304000	-1.1646195084309	11.9109693354459
1342000	-1.11025453959377	11.3831462651824
1380000	-1.05747818428805	10.8369494423506
1418000	-1.01003233938272	10.341623642183
1456000	-0.962809628247407	9.82401447319872
1494000	-0.922479947616672	9.31481138292963
1532000	-0.881537134152603	8.82231346515514
1570000	-0.842677436489086	8.34674139255396
1608000	-0.807256718081339	7.86780129526935
1646000	-0.77409923179335	7.39944031105551
1684000	-0.742785134125941	6.93934773519434
1722000	-0.712234195240138	6.47553335443992
1760000	-0.684430888999731	6.05108575471725
1798000	-0.656029619994064	5.59689714548658
1836000	-0.630153095983562	5.17312033861211
1874000	-0.607801448179958	4.75359654701404
1912000	-0.584398814029281	4.33527766381852
1950000	-0.561953771963199	3.93060590617023
1988000	-0.540647072521228	3.52279574407068
2026000	-0.521645404702	3.12300022469628
2064000	-0.504543376327036	2.60508111185643
2102000	-0.487991156193328	2.19457272160642
2140000	-0.47099415240973	1.81171305320072
2178000	-0.456725302082847	1.43277561786859
2216000	-0.441620285020187	1.06557997565037
2254000	-0.429115118758663	0.696421201651344
2292000	-0.413558904281834	0.311053396691044
2330000	-0.397698134988661	-0.0668767996146656
2368000	-0.387046655373439	-0.413937014012088
2406000	-0.373682577600028	-0.751221811987551
2444000	-0.362669248755582	-1.12547845340284
2482000	-0.349085813118415	-1.47088652945512
2520000	-0.3402558543914	-1.81384332994442
2558000	-0.3312218988243	-2.17634546532469
2596000	-0.322080426211831	-2.52010980738934
2634000	-0.314365114374186	-2.84712619896593
2672000	-0.304850781853358	-3.18019200545695
2710000	-0.295905832313022	-3.52045502073945
2748000	-0.289297895208724	-3.84160314884327
2786000	-0.279493142641539	-4.17708367395933
2824000	-0.272348543814632	-4.50256892923902
2862000	-0.2639162408833	-4.82299078288435
2900000	-0.260397413550243	-5.1289081489416
2938000	-0.254500237590302	-5.46570702798994
2976000	-0.246030639917973	-5.78645949109804
3014000	-0.242606073814097	-6.09795014632588
3052000	-0.237925545676138	-6.40134881953207
3090000	-0.229297374257524	-6.72548349201923
3128000	-0.225232264133557	-7.0243951338409
3166000	-0.220753485835692	-7.33211737352326
3204000	-0.216151559041134	-7.65210015728317
3242000	-0.211209439196545	-7.95229051254322
3280000	-0.206650256747872	-8.24946103783144
3318000	-0.204874300379256	-8.55475445040271
3356000	-0.199667431005045	-8.84648729443276
3394000	-0.197155399729195	-9.15132135742625
3432000	-0.191326464664505	-9.46239740737298
3470000	-0.18857026994766	-9.70978746389917
3508000	-0.166141501975401	-10.0103075078003
3546000	-0.1810192270004	-10.3189981883202
3584000	-0.179984445960362	-10.6227264596877
3622000	-0.175523774203707	-10.9080218244678
3660000	-0.17603790160673	-11.2063819012966
3698000	-0.171919839277761	-11.5194981860795
3736000	-0.171569660192197	-11.7787661831116
3774000	-0.170103042663945	-12.0618980963628
3812000	-0.168486703884393	-12.3480754858825
3850000	-0.165991372582709	-12.6557063866429
3888000	-0.162244106392206	-12.9285379501364
3926000	-0.158332671721592	-13.2267793493407
3964000	-0.16010158304583	-13.5047803072092
4002000	-0.158187967763169	-13.7954691890951
4040000	-0.157538534996818	-14.074305314344
4078000	-0.154043360857113	-14.3798424369586
4116000	-0.155793118496189	-14.6304134965811
4154000	-0.154969300989661	-14.9351113281218
4192000	-0.151250072110078	-15.2215581822875
4230000	-0.151622511725288	-15.4842497191322
4268000	-0.150659368319385	-15.7745901765616
4306000	-0.151020520066612	-16.0741915169869
4344000	-0.151062372395483	-16.3254953202132
4382000	-0.152796077372563	-16.6038386516395
4420000	-0.151063030757047	-16.884749715711
4458000	-0.149175706014933	-17.1807669118678
4496000	-0.150407333116782	-17.4507932901038
4534000	-0.147625225966579	-17.7542945162142
4572000	-0.147175332365311	-18.0211816248013
4610000	-0.152170778138529	-18.3057309120255
4648000	-0.146105755513239	-18.5611102482835
4686000	-0.1471049245392	-18.8493391208307
4724000	-0.150941444129335	-19.1650801663835
4762000	-0.149118498586898	-19.4637027062106
4800000	-0.146785352512806	-19.7157307509344
4838000	-0.149082512749371	-20.0036965129743
4876000	-0.147835318678057	-20.2633549668044
4914000	-0.149979820089002	-20.570392373762
4952000	-0.151856745105876	-20.8391807361813
4990000	-0.15339199526983	-21.1157348584099
5028000	-0.153659291600368	-21.4048973901401
5066000	-0.157096784393266	-21.6883564613744
5104000	-0.153750107987711	-21.9730587875806
5142000	-0.153856321204051	-22.2517996986253
5180000	-0.15855022479065	-22.5660538186817
5218000	-0.157520656857721	-22.842429157582
5256000	-0.157573661675864	-23.1575973157266
5294000	-0.160151307289563	-23.426515415754
5332000	-0.16101118232359	-23.7047363437472
5370000	-0.164727948247029	-23.9878447433025
5408000	-0.166359390819879	-24.2565031700636
5446000	-0.165826323624975	-24.5417564157235
5484000	-0.165021440568644	-24.8752954993012
5522000	-0.169735588011013	-25.1478353349222
5560000	-0.167396100954945	-25.4394212346419
5598000	-0.172435749936879	-25.7299592083072
5636000	-0.172081703151881	-26.0169783345469
5674000	-0.178920510020157	-26.3257292513654
5712000	-0.177159804612817	-26.6375145496769
5750000	-0.179797194260982	-26.8931715354924
5788000	-0.182261635784119	-27.2303603747089
5826000	-0.181078587391242	-27.5097148507316
5864000	-0.18113171895505	-27.8030053983033
5902000	-0.190331276053125	-28.1504282704202
5940000	-0.189721026141053	-28.4382858574889
5978000	-0.193066690404746	-28.7237089188005
6016000	-0.198466274927499	-29.0488817323165
6054000	-0.19989330115914	-29.3440317668063
6092000	-0.203946403712795	-29.6677680994168
6130000	-0.206011840502169	-29.9658772968534
6168000	-0.20870251077333	-30.2792369859627
6206000	-0.211614623095347	-30.5883943103076
6244000	-0.221715982035183	-30.9287737159269
6282000	-0.221350470105232	-31.2715058084984
6320000	-0.223283967888649	-31.5807246657874
6358000	-0.228729897699657	-31.9198112799174
6396000	-0.231516318033314	-32.2524202768391
6434000	-0.241475014048197	-32.580405996022
6472000	-0.25147930428717	-32.9389247274328
6510000	-0.264014370197469	-33.3158496796299
6548000	-0.279311851763372	-33.6899737089776
6586000	-0.302462975617604	-34.0190999061713
6624000	-0.332610692454301	-34.2921766908892
6662000	-0.360381791109071	-34.4588830355896
6700000	-0.372818441324684	-34.5414960138153
6738000	-0.364339589681229	-34.6798314680351
6776000	-0.356499592243471	-34.8983209676735
6814000	-0.338575185276078	-35.1533767941154
6852000	-0.333723487326353	-35.4725936480661
6890000	-0.330948848604517	-35.7578651825395
6928000	-0.326797687093387	-36.1258143481798
6966000	-0.322261778294396	-36.4563966611376
7004000	-0.322272141170174	-36.8007795098637
7042000	-0.316826457982854	-37.1227873783923
7080000	-0.318309768215263	-37.4896188391823
7118000	-0.326592250810009	-37.8718757892954
7156000	-0.332469374825173	-38.1960975885428
7194000	-0.330717331286862	-38.5292261291712
7232000	-0.337794738613503	-38.8938115367148
7270000	-0.344528493019907	-39.2123922081105
7308000	-0.343378775996276	-39.5750386387182
7346000	-0.347178075836576	-39.891554440374
7384000	-0.354984993083475	-40.2760063217881
7422000	-0.362039433187597	-40.5777229030317
7460000	-0.367657183275922	-40.9735902656802
7498000	-0.369796820258482	-41.3343941022456
7536000	-0.3751158570297	-41.713134868523
7574000	-0.374174405785195	-42.0566325049613
7612000	-0.385126555841926	-42.3701974369372
7650000	-0.385980080245591	-42.746175710906
7688000	-0.395210211103644	-43.1182561291875
7726000	-0.400569228705825	-43.4789849405154
7764000	-0.408566418104681	-43.846440229929
7802000	-0.423039364589731	-44.1736807517901
7840000	-0.415691967142276	-44.5797030211428
7878000	-0.422314644458632	-44.9489859313122
7916000	-0.433560485910124	-45.3410446284655
7954000	-0.439103857769094	-45.7318188834841
7992000	-0.441691828453743	-46.091298241194
8030000	-0.451506417700189	-46.4153681804026
8068000	-0.460515830534915	-46.8760157741642
8106000	-0.469594373749884	-47.2190885522061
8144000	-0.473344379504816	-47.6132049568786
8182000	-0.480256179620433	-47.9576338693707
8220000	-0.488705640047989	-48.3516163476611
8258000	-0.495495614925458	-48.7841676201476
8296000	-0.504070121957365	-49.1799260007452
8334000	-0.510758938350682	-49.5876812875632
8372000	-0.516608912529009	-49.9752158608953
8410000	-0.527831375766362	-50.3883654059353
8448000	-0.529318435330305	-50.815016283558
8486000	-0.545806803547468	-51.2131454851424
8524000	-0.554984361541204	-51.5912030761239
8562000	-0.561210890582797	-52.0353419668514
8600000	-0.566903800136247	-52.4729326294448
8638000	-0.57563413805372	-52.8700794541599
8676000	-0.583314657100787	-53.2982350165088
8714000	-0.594486313645609	-53.7257163888921
8752000	-0.608926721739859	-54.1269477998309
8790000	-0.618152459459286	-54.5730930582563
8828000	-0.619619366084343	-55.0244493172306
8866000	-0.630752801056498	-55.4765909403337
8904000	-0.64450356743369	-55.9444912677246
8942000	-0.661593976200722	-56.4766276563054
8980000	-0.689667364709388	-56.8883207362921
9018000	-0.719896186367142	-57.2471098171767
9056000	-0.715737180779385	-57.6251776770882
9094000	-0.717904648048847	-58.0333476687228
9132000	-0.728185547847006	-58.5303706945407
9170000	-0.73970638957533	-58.9604388914265
9208000	-0.742919293010993	-59.431384413139
9246000	-0.755749198722708	-59.830714911353
9284000	-0.761890413189443	-60.3508691948352
9322000	-0.778304253764996	-60.8605051012476
9360000	-0.78658001465517	-61.3162497201924
9398000	-0.808611347857614	-61.776903506761
9436000	-0.816705099688848	-62.2850411812537
9474000	-0.824370280504883	-62.7459210373584
9512000	-0.843730691133012	-63.2960255644192
9550000	-0.855059981855528	-63.7432277029268
9588000	-0.867999075047126	-64.2573348971904
9626000	-0.881636083438985	-64.7682304898617
9664000	-0.897157390279061	-65.2996370377848
9702000	-0.912395906740311	-65.7676396118606
9740000	-0.928493794507439	-66.2913349408785
9778000	-0.936104029575306	-66.800073958976
9816000	-0.957081201404286	-67.3417539461143
9854000	-0.970992050695642	-67.8444368321897
9892000	-0.990983608110457	-68.3697288778745
9930000	-1.00334079270433	-68.9247671546013
9968000	-1.01699245943833	-69.4790194019844
10006000	-1.03395999349987	-70.0069859722764
10044000	-1.05863892592031	-70.5608525398986
10082000	-1.06518470862761	-71.0604008729911
10120000	-1.08537604035825	-71.6530074561654
10158000	-1.10452496670924	-72.2193894372702
10196000	-1.12155078347	-72.800540698595
10234000	-1.14161658576283	-73.3256988210109
10272000	-1.16224878786426	-73.9038003189564
10310000	-1.18022940691658	-74.5229631072184
10348000	-1.19063629340553	-75.0458855398132
10386000	-1.21175633161037	-75.6943323910671
10424000	-1.23857067930698	-76.2697007302589
10462000	-1.26214501419789	-76.8639146415565
10500000	-1.28104358123291	-77.4405173994902
10538000	-1.29889258474243	-78.0462518089744
10576000	-1.32102326721081	-78.6683188615428
10614000	-1.34512075220835	-79.2789661274807
10652000	-1.36904616724305	-79.9079415804555
10690000	-1.39287451656245	-80.5413382102332
10728000	-1.41636475739743	-81.1933342384833
10766000	-1.4377241131246	-81.8362099661444
10804000	-1.45779455113585	-82.4417986819742
10842000	-1.48718659300315	-83.1223854616831
10880000	-1.50987535271021	-83.7595011527303
10918000	-1.53058401051312	-84.4064344396446
10956000	-1.55257365854319	-85.0775247974702
10994000	-1.58335343723763	-85.7821603878122
11032000	-1.61362895928691	-86.4514642357886
11070000	-1.63711249170314	-87.1129585009694
11108000	-1.66302566068153	-87.7913200721291
11146000	-1.70038774665088	-88.4854743170188
11184000	-1.72656384354714	-89.2328595336504
11222000	-1.7575474697339	-89.9200800502607
11260000	-1.78396981714311	-90.5944118016235
11298000	-1.81124545929415	-91.2981329935718
11336000	-1.84641314118916	-92.0858544801652
11374000	-1.87975056092359	-92.7180475350903
11412000	-1.90271664766107	-93.4747703568101
11450000	-1.94029592424881	-94.1901544589993
11488000	-1.970766621937	-95.0026049979226
11526000	-1.99859589198464	-95.7199053628199
11564000	-2.03658032378863	-96.3904926439864
11602000	-2.07649542264738	-97.1649461822803
11640000	-2.10224977866567	-97.9343618922391
11678000	-2.1310013871782	-98.6975118681328
11716000	-2.15710716114579	-99.4744122949937
11754000	-2.20063201185948	-100.239881686301
11792000	-2.23163373843957	-100.987736764414
11830000	-2.26072245708233	-101.755806566115
11868000	-2.28782583806009	-102.513274329334
11906000	-2.31396741280211	-103.421382043675
11944000	-2.32705806738661	-104.250677605982
11982000	-2.36415773060785	-105.239050008365
12020000	-2.41122433519723	-106.231065955669
12058000	-2.4798432381857	-107.069723298035
12096000	-2.52873276973483	-107.875151365198
12134000	-2.57133975091582	-108.764268487201
12172000	-2.61139470102016	-109.543911517658
12210000	-2.65286232388545	-110.391666002388
12248000	-2.69269182951841	-111.244172852802
12286000	-2.73985381647242	-112.116737791567
12324000	-2.78011040361502	-112.960920751348
12362000	-2.82352358034677	-113.909891924312
12400000	-2.8688425463355	-114.805027220061
12438000	-2.90424465846327	-115.670170907696
12476000	-2.94631713997542	-116.605636194844
12514000	-2.98791711920724	-117.513497241591
12552000	-3.03466230048333	-118.446017211363
12590000	-3.0856974906673	-119.297524474794
12628000	-3.12067356406007	-120.27558055941
12666000	-3.15466597228908	-121.247802841766
12704000	-3.21191847861388	-122.247498280294
12742000	-3.25241490171171	-123.202833609692
12780000	-3.29681807465658	-124.156301937632
12818000	-3.34680945554967	-125.167838269674
12856000	-3.39032668206412	-126.184182141525
12894000	-3.44329697600673	-127.176408584258
12932000	-3.48561069075422	-128.212908225321
12970000	-3.53680995334005	-129.154426599625
13008000	-3.58439094378947	-130.209614977156
13046000	-3.62975772673674	-131.244775317172
13084000	-3.67823713928402	-132.295221593978
13122000	-3.72218279253888	-133.356195068164
13160000	-3.77990136253913	-134.392765110155
13198000	-3.8227980021846	-135.465329406261
13236000	-3.86920371814223	-136.580792261607
13274000	-3.91293493116219	-137.601034367092
13312000	-3.97136023496316	-138.721977803881
13350000	-4.0263880638608	-139.782134810313
13388000	-4.06567615024892	-140.920673005343
13426000	-4.12429707937301	-142.024990218536
13464000	-4.1668091876603	-143.163010316794
13502000	-4.2139923107357	-144.252126884681
13540000	-4.25904747472333	-145.395395765181
13578000	-4.31509716985905	-146.490367938312
13616000	-4.36612192501804	-147.649640318139
13654000	-4.41790074963318	-148.824009756525
13692000	-4.46237189865723	-149.978774761272
13730000	-4.51358090256172	-151.145817833616
13768000	-4.56470552282464	-152.325281763467
13806000	-4.61105954992483	-153.471625298798
13844000	-4.65824686547716	-154.636179297865
13882000	-4.70621499633402	-155.83036802707
13920000	-4.75132547905327	-157.041774306925
13958000	-4.80484289780384	-158.208352196762
13996000	-4.85094786640373	-159.351666380695
14034000	-4.89457240156101	-160.587114477969
14072000	-4.94227355964597	-161.799464052096
14110000	-4.98483384978088	-162.989775777095
14148000	-5.03008685878631	-164.184071000226
14186000	-5.06975292557063	-165.362396231627
14224000	-5.11324000709649	-166.625685270199
14262000	-5.15080087092049	-167.823956759415
14300000	-5.1921705074748	-169.046043827581
14338000	-5.22781958402851	-170.28739460915
14376000	-5.27453465779822	-171.508202089148
14414000	-5.30977295991623	-172.746154144517
14452000	-5.34107542067906	-173.95259242033
14490000	-5.3772086333865	-175.184466541715
14528000	-5.41208808438729	-176.401632239172
14566000	-5.44605005159068	-177.638218027937
14604000	-5.48145081431383	-178.875005792116
14642000	-5.50538491845294	179.900726591657
14680000	-5.53609038863331	178.680833861653
14718000	-5.56112512772277	177.450176063772
14756000	-5.58953192995308	176.248676329918
14794000	-5.61509770726699	174.988735836263
14832000	-5.63496630544202	173.788609528331
14870000	-5.66143589460926	172.552616762554
14908000	-5.67815710029267	171.365719168236
14946000	-5.69472347914383	170.16196425212
14984000	-5.71407104863987	168.982864631936
15022000	-5.72169556971246	167.781594426907
15060000	-5.7390473194668	166.571070120113
15098000	-5.74601894428608	165.351188526737
15136000	-5.75259066122321	164.219697681543
15174000	-5.75092849099257	163.060034920953
15212000	-5.74425976456413	161.850082199062
15250000	-5.73391406871172	160.671059342684
15288000	-5.72259425810001	159.474977619414
15326000	-5.70119524600784	158.267660549701
15364000	-5.67581358486235	157.089387312424
15402000	-5.64209782745083	155.797907544772
15440000	-5.5939304024619	154.465267490312
15478000	-5.54270987637551	152.992838988722
15516000	-5.49602243563481	151.232113479145
15554000	-5.49053428457729	149.36027598157
15592000	-5.53970771139426	147.415063470003
15630000	-5.62993749195654	145.716522115601
15668000	-5.74602850692285	144.431749716638
15706000	-5.82781724776888	143.424340867879
15744000	-5.88211723430626	142.592452438912
15782000	-5.91549596252039	141.674649149798
15820000	-5.93247696317083	140.843801729364
15858000	-5.93783477522817	139.999132975456
15896000	-5.93260937792546	139.040531231075
15934000	-5.92473197788238	138.123456369724
15972000	-5.90903213833754	137.097062905678
16010000	-5.89059548934763	136.170520180818
16048000	-5.88101299477118	135.145941922212
16086000	-5.8624407310114	134.164102431018
16124000	-5.84152551330942	133.158559624257
16162000	-5.82450138648284	132.174575439046
16200000	-5.80834655113106	131.121182282593
16238000	-5.79590644701144	130.122955847084
16276000	-5.7888766516197	129.187670675294
16314000	-5.77183432038814	128.234523345816
16352000	-5.75540533181588	127.278466101653
16390000	-5.73977779683684	126.324962572635
16428000	-5.72055675884967	125.421481640539
16466000	-5.71277471875755	124.593334337788
16504000	-5.69220439480088	123.710300224018
16542000	-5.67451140312741	122.909194526869
16580000	-5.6551813696073	122.077548021717
16618000	-5.64267889462247	121.281112054317
16656000	-5.60909215894443	120.528753115349
16694000	-5.58499393002974	119.752584326942
16732000	-5.54949779733454	119.084847148944
16770000	-5.51770712768583	118.440719514806
16808000	-5.48533832824089	117.732094254988
16846000	-5.43747797127184	117.016831548562
16884000	-5.39140059688596	116.478100955433
16922000	-5.34872303137168	115.803052984312
16960000	-5.29312236547649	115.067132000558
16998000	-5.22073078582963	114.498940614876
17036000	-5.14933660860817	113.851586871716
17074000	-5.086977391912	113.209087874491
17112000	-5.00540435544246	112.587292597954
17150000	-4.93711246542316	111.913694310471
17188000	-4.84965884591399	111.211866408247
17226000	-4.76807317064502	110.465097005603
17264000	-4.68686967974811	109.783473365962
17302000	-4.59248669396735	108.961799095499
17340000	-4.50336333963893	108.217380135823
