!Keysight Technologies N9918A: A.12.56
!Date: Monday, 21 July 2025 04:02:55
!TimeZone: (UTC-08:00) Pacific Time (US & Canada)!Model: N9918A
!Serial: MY56072139
!GPS Latitude: 
!GPS Longitude: 
!GPS TimeStamp: 0001-01-01 00:00:00Z
!GPS Seconds Since Last Read: 0
!CHECKSUM:0949394562
!Correction: S11(ON U)
!S1P File: Measurement: S11:
# Hz S DB R 50
500000	0.00428659008182844	-0.0317690964230116
529500	0.00269107960432414	-0.154361079975991
559000	0.00472082833651951	-0.265955628618951
588500	0.00509462287897829	-0.389512092362644
618000	0.00330472902716664	-0.471477386738963
647500	0.00231264936163685	-0.575604417804527
677000	0.00225468241781689	-0.67588546580323
706500	0.000918654158672109	-0.773195696860438
736000	0.0010502607424425	-0.871374389385869
765500	-0.00346341679350699	-0.971741689773478
795000	-0.00505823980369074	-1.0606459180758
824500	-0.0155865654035201	-1.148398791006
854000	-0.0185075492755425	-0.996309815064769
883500	0.00292380835683079	-1.1524985797691
913000	0.00434942108870081	-1.25931399903484
942500	0.00515471076163974	-1.3625688566127
972000	0.00606831195699322	-1.4517184209358
1001500	0.00453960016368432	-1.53845372876541
1031000	0.00554524438658402	-1.61617605517615
1060500	0.00640158739415177	-1.69443595199653
1090000	0.0054538164193712	-1.76871371278983
1119500	0.00451032246558066	-1.84505515901826
1149000	0.00463031199683404	-1.92057343227709
1178500	0.0042818728680669	-1.99996770470805
1208000	0.00489285721965187	-2.05877364792016
1237500	0.00417255137965155	-2.15095114820712
1267000	0.00451325311370111	-2.21569010099861
1296500	0.00399277066687182	-2.29208398751923
1326000	0.00430050737530304	-2.36275582611243
1355500	0.00369885997866093	-2.44587528408313
1385000	0.00487157021247097	-2.51241657310107
1414500	0.00441115008055235	-2.57874042364006
1444000	0.00522407120062854	-2.66234654416474
1473500	0.00532246538268232	-2.73308242774367
1503000	0.00347061013712485	-2.80181136578551
1532500	0.00414303041566502	-2.86990969414588
1562000	0.00356648674714285	-2.95026796155789
1591500	0.0028250564407567	-3.0152203775806
1621000	0.00227667252841633	-3.09443772951546
1650500	-0.000239896683085252	-3.1605223744289
1680000	0.00178796886998834	-3.22099322827329
1709500	-0.000380593385213691	-3.30234925922966
1739000	-0.000840523221903976	-3.37652136192697
1768500	-0.00179855590826486	-3.43581844898812
1798000	-0.00182170152440535	-3.50611816777304
1827500	-0.00137276573074493	-3.5688296251667
1857000	-0.00195226627499876	-3.64099715926849
1886500	-0.0050164805430777	-3.70207217758893
1916000	-0.00278714023321419	-3.76305017863737
1945500	-0.00377392627726129	-3.84045507181051
1975000	-0.00287394838745272	-3.89821540252342
2004500	-0.00283036258933434	-3.97644905246145
2034000	-0.00370174572307193	-4.0390079634105
2063500	-0.0244797692682649	-4.349785017376
2093000	-0.0254902853030586	-4.43999523621902
2122500	-0.0242639683310337	-4.50566545044701
2152000	-0.0271323236607545	-4.59174392292258
2181500	-0.0287616036846404	-4.65731590335321
2211000	-0.0405201843952693	-4.7226062097417
2240500	-0.0279117676666494	-4.79851301584237
2270000	-0.0287770002201425	-4.86091471683959
2299500	-0.0300781902810199	-4.94188549465093
2329000	-0.0332700954030664	-5.03951575074221
2358500	-0.0315257135042558	-5.10893971320435
2388000	-0.0341572634884961	-5.1534815927765
2417500	-0.0350167761540334	-5.25079727449391
2447000	-0.041268228192622	-5.31055808503381
2476500	-0.0387643353484043	-5.38058646926415
2506000	-0.0377785064879804	-5.44346813810923
2535500	-0.0341265527788114	-5.52977931521078
2565000	-0.0403284781699603	-5.60670328685374
2594500	-0.0443309245089543	-5.65607994582074
2624000	-0.0442698109111733	-5.76595679218917
2653500	-0.0471268412458672	-5.83739889732186
2683000	-0.0497550240802796	-5.89522239847276
2712500	-0.0496996205921048	-5.96937346279891
2742000	-0.0539464733929306	-6.03919755256793
2771500	-0.0577207091043433	-6.11859229779257
2801000	-0.0596599990781703	-6.17362394525144
2830500	-0.0636807685775665	-6.25937016225248
2860000	-0.0654817219057198	-6.317304997005
2889500	-0.0663071758598699	-6.36801261999048
2919000	-0.067889450749135	-6.44632583644732
2948500	-0.0715776492154942	-6.50134503781396
2978000	-0.0748863233859051	-6.56995413766342
3007500	-0.0721995581353702	-6.63314454558801
3037000	-0.0747679787344089	-6.69270155202751
3066500	-0.0758837780375632	-6.77192667772227
3096000	-0.0781929191923101	-6.85686423423646
3125500	-0.0715937066647326	-6.88163301103104
3155000	-0.0790146363719922	-6.97853880605417
3184500	-0.0840284198273695	-7.04597951050862
3214000	-0.0847929612496426	-7.11436369903538
3243500	-0.0851627345478156	-7.20904675035501
3273000	-0.0887300566540953	-7.26034165496794
3302500	-0.0915307297348285	-7.35063494188992
3332000	-0.0951617739191075	-7.3953398536639
3361500	-0.09736718526167	-7.49951620842288
3391000	-0.101175127183231	-7.57105142115434
3420500	-0.105721811866422	-7.64416765031944
3450000	-0.115909082836101	-7.72131562155093
3479500	-0.115643585938361	-7.77438385952669
3509000	-0.125294765954644	-7.8374781176983
3538500	-0.123875862955473	-7.8548427414266
3568000	-0.131244274802387	-7.90656429266806
3597500	-0.130605653105075	-7.93089025370374
3627000	-0.132111854686611	-8.00814773820867
3656500	-0.135379446896865	-8.03784065150888
3686000	-0.139537956173131	-8.10084143550809
3715500	-0.141346248760937	-8.1423391559956
3745000	-0.144991432590004	-8.20144370219101
3774500	-0.149374660852008	-8.27635150813274
3804000	-0.151538307759605	-8.29903010063508
3833500	-0.151071990483357	-8.32734600647512
3863000	-0.149609786344428	-8.35604396604293
3892500	-0.14522657241278	-8.41681020819616
3922000	-0.142530573317749	-8.49070522070892
3951500	-0.138524372301169	-8.56338860675407
3981000	-0.139494819639702	-8.66084611750603
4010500	-0.139432750905322	-8.74948534980958
4040000	-0.143884114509044	-8.86088106006769
4069500	-0.151412655536509	-8.92501252917062
4099000	-0.161282778657709	-9.0066097969576
4128500	-0.167078062861995	-9.04530734131129
4158000	-0.170505985586993	-9.06778183269202
4187500	-0.16729274442589	-9.09025046768499
4217000	-0.168810902613547	-9.11967694059787
4246500	-0.166345692327306	-9.16470220439194
4276000	-0.165660642024656	-9.22272194427007
4305500	-0.162582409909562	-9.26620957108874
4335000	-0.162709193385892	-9.36032100182937
4364500	-0.161655029177242	-9.40185071337971
4394000	-0.156317386159021	-9.46622524603136
4423500	-0.156122540228222	-9.54118054363651
4453000	-0.157485413868317	-9.61815048906991
4482500	-0.161020697144992	-9.6771615037356
4512000	-0.158143722581949	-9.73813420946642
4541500	-0.155501964016717	-9.81284667363106
4571000	-0.155826852225589	-9.89283156213667
4600500	-0.155769575315036	-9.93515084942721
4630000	-0.153644510174522	-10.0240236905041
4659500	-0.154706348537735	-10.1011282076045
4689000	-0.1534251669892	-10.1971879021717
4718500	-0.152955802888303	-10.2673443648148
4748000	-0.152312210052136	-10.3273137873944
4777500	-0.146533777556273	-10.4220191155769
4807000	-0.151663646568351	-10.5022429292325
4836500	-0.149528144407992	-10.5958435907275
4866000	-0.147496654986169	-10.6826991761103
4895500	-0.151704842953657	-10.7707518702396
4925000	-0.148136860664434	-10.8310775212239
4954500	-0.152949367688537	-10.9342074281058
4984000	-0.152262277872034	-11.0287311863036
5013500	-0.154126540060187	-11.1426399544615
5043000	-0.161566747823924	-11.231198584403
5072500	-0.168566082348185	-11.3164141342662
5102000	-0.165320238458574	-11.4291526302531
5131500	-0.171871947698362	-11.5065913140555
5161000	-0.169618420136103	-11.6085647079807
5190500	-0.173219241372935	-11.699204977419
5220000	-0.176517743141481	-11.7735020557305
5249500	-0.180193634775638	-11.8621123487649
5279000	-0.183311729459061	-11.9570707750314
5308500	-0.190459066142951	-12.0277619479656
5338000	-0.19086991642603	-12.1290273271688
5367500	-0.200236112759211	-12.2512498901114
5397000	-0.203064486665306	-12.3076545129612
5426500	-0.207207624007816	-12.3767528316069
5456000	-0.204262268609108	-12.4715227105097
5485500	-0.220710942814062	-12.5497714652371
5515000	-0.2250183423431	-12.6369359500791
5544500	-0.223094493802922	-12.7300054419806
5574000	-0.229747382213445	-12.8175743922261
5603500	-0.236980010008225	-12.8882156702993
5633000	-0.242510860449007	-12.9592000394021
5662500	-0.24663344295524	-13.058062247206
5692000	-0.251413832023084	-13.1441464133362
5721500	-0.257984792923125	-13.2418083893097
5751000	-0.263748687009905	-13.3365091558197
5780500	-0.270627318804946	-13.4028436484855
5810000	-0.277860129790792	-13.4723340975673
5839500	-0.282875640844009	-13.5907945883614
5869000	-0.289614483780849	-13.6721380251963
5898500	-0.299401592829096	-13.7790665693219
5928000	-0.30695019128088	-13.8538753287682
5957500	-0.316305003665447	-13.9251822061779
5987000	-0.324804845198104	-13.9975820558348
6016500	-0.33328171432378	-14.0810047704918
6046000	-0.347505569947644	-14.1503378815663
6075500	-0.35002180110473	-14.2410477003401
6105000	-0.363643198774562	-14.2903839544213
6134500	-0.37055549731458	-14.3641385877378
6164000	-0.379210112019014	-14.4269383054749
6193500	-0.390455436984666	-14.4803379393532
6223000	-0.401971648476939	-14.5410009225845
6252500	-0.414227738506805	-14.5971785470448
6282000	-0.420777369143127	-14.6437739312221
6311500	-0.436878613091016	-14.6783146912202
6341000	-0.448623050002645	-14.7177950512228
6370500	-0.462756969900212	-14.7986568498679
6400000	-0.465075059366778	-14.7978846314213
6429500	-0.482364793515824	-14.8110613829257
6459000	-0.485336279979525	-14.8302057634397
6488500	-0.493279397095165	-14.8715579165177
6518000	-0.503562264640359	-14.8378876624421
6547500	-0.509580296695119	-14.8891927379986
6577000	-0.51957970000483	-14.8785245618661
6606500	-0.522152707487059	-14.9214297966842
6636000	-0.528495684807524	-14.933274551754
6665500	-0.535116476586778	-14.9212502884883
6695000	-0.537835004086731	-14.9158650932439
6724500	-0.540628326656677	-14.9392224422847
6754000	-0.541812946043142	-14.9465039713366
6783500	-0.543694417028531	-14.9246235366848
6813000	-0.54518503526389	-14.9368799981302
6842500	-0.548424471346445	-14.9481549967317
6872000	-0.545037833018012	-14.9784279298369
6901500	-0.541966585552125	-14.9950231866575
6931000	-0.541231019385775	-15.0170027805583
6960500	-0.537550457636155	-15.0460018698356
6990000	-0.534643470569639	-15.0883774163614
7019500	-0.542455717393228	-15.1402164537637
7049000	-0.528091643350343	-15.1566610301318
7078500	-0.524962601998054	-15.2245507806829
7108000	-0.522657295745017	-15.2867984315476
7137500	-0.520161842414411	-15.3367790432211
7167000	-0.516221268164716	-15.417016796123
7196500	-0.512556127049158	-15.4475627350159
7226000	-0.512031390819247	-15.5568007855077
7255500	-0.510237477422063	-15.5962452165323
7285000	-0.507519615063229	-15.6888133987877
7314500	-0.504880160931514	-15.7779592525998
7344000	-0.501880422309573	-15.8411724163948
7373500	-0.499238869965489	-15.9164818828408
7403000	-0.49773404086496	-16.0080475547704
7432500	-0.499776384593551	-16.1164058173225
7462000	-0.495253618646989	-16.2437275632375
7491500	-0.498185445664331	-16.3246458051638
7521000	-0.499125332175075	-16.4249640068339
7550500	-0.500704030938779	-16.5518269288569
7580000	-0.50280611117417	-16.6742682036415
7609500	-0.502975420527786	-16.7889163269337
7639000	-0.509798714156179	-16.9017993320574
7668500	-0.516454892054564	-17.0392364780633
7698000	-0.520883525007978	-17.1524206132162
7727500	-0.531500381098256	-17.2761107621316
7757000	-0.538156369271147	-17.4119697851769
7786500	-0.547256197442462	-17.5136054795076
7816000	-0.556422318577941	-17.6505153855055
7845500	-0.570088883711898	-17.755058853962
7875000	-0.589107629010509	-17.8550402055524
7904500	-0.59681292538191	-17.9751904573447
7934000	-0.616722876114224	-18.0490877867205
7963500	-0.62888425214893	-18.1890593480118
7993000	-0.652389412063171	-18.2868436804068
8022500	-0.667889991782234	-18.3589208767967
8052000	-0.691389643705164	-18.4075268688853
8081500	-0.708593323862316	-18.4897699779795
8111000	-0.734142772885485	-18.536202255535
8140500	-0.755704677262142	-18.5744124278927
8170000	-0.78038330756132	-18.5769555797253
8199500	-0.802739453428799	-18.5565910236765
8229000	-0.82332963612002	-18.5303899293677
8258500	-0.842262740429815	-18.4784229910701
8288000	-0.860847944393257	-18.4180232871567
8317500	-0.875872064629964	-18.3438195854764
8347000	-0.890489220944294	-18.2510024574042
8376500	-0.898348912612121	-18.1617150634641
8406000	-0.902038591579981	-18.0721060755589
8435500	-0.907998062492418	-17.9790263857676
8465000	-0.908453926998132	-17.8841333826355
8494500	-0.906477330522236	-17.7872082990678
8524000	-0.897527886227209	-17.7313091073439
8553500	-0.891249928624422	-17.6690471025608
8583000	-0.880950716324665	-17.5925096089432
8612500	-0.870507609042851	-17.5880534634072
8642000	-0.857917882510722	-17.5684817313658
8671500	-0.84538574972427	-17.5682313911132
8701000	-0.833704432305662	-17.5752235063195
8730500	-0.822626987232071	-17.5794997922728
8760000	-0.809369838960356	-17.6307538574014
8789500	-0.80044569406472	-17.7069749705853
8819000	-0.789779216812359	-17.7788374888706
8848500	-0.780761246192997	-17.8478706219516
8878000	-0.770856053324276	-17.9276145445538
8907500	-0.766675048484256	-18.01538999824
8937000	-0.761917330965825	-18.1192953516475
8966500	-0.764631423997076	-18.2014434651989
8996000	-0.756313047281827	-18.3031137582259
9025500	-0.755814392287258	-18.4205256231389
9055000	-0.755445154677641	-18.511456871793
9084500	-0.757900670087662	-18.6190155373241
9114000	-0.759007501749361	-18.7207281621253
9143500	-0.765034253184562	-18.8257518754017
9173000	-0.771160445839045	-18.9334376204291
9202500	-0.781548562971295	-19.0219228445686
9232000	-0.786898086084753	-19.0955256086279
9261500	-0.795184183507316	-19.1648008419524
9291000	-0.808900296912137	-19.2209131450411
9320500	-0.818561365923624	-19.2889285756642
9350000	-0.830040405491043	-19.3224854709028
9379500	-0.842189636055689	-19.3470423083002
9409000	-0.853232823691152	-19.3722792517517
9438500	-0.866494926932145	-19.3792362478892
9468000	-0.878938644458973	-19.3980516850433
9497500	-0.88850080201688	-19.3203823067544
9527000	-0.899250754154914	-19.2998678023288
9556500	-0.904861040579515	-19.235098636676
9586000	-0.910235291680287	-19.1851632489767
9615500	-0.909869939368997	-19.1088899482463
9645000	-0.912155157317302	-19.0405235263401
9674500	-0.907208769530734	-18.9731094475995
9704000	-0.897441976913779	-18.8959269010259
9733500	-0.888987921624801	-18.8268001458173
9763000	-0.87442785893851	-18.7885809710667
9792500	-0.860382712166071	-18.7445591869546
9822000	-0.847403662974248	-18.7369630912952
9851500	-0.830026279513263	-18.7157232657417
9881000	-0.815394617099659	-18.7061975590288
9910500	-0.795072189716972	-18.7502488525035
9940000	-0.77552128730348	-18.7597293728514
9969500	-0.761037870475454	-18.7975433053523
9999000	-0.740378279428434	-18.8555651420482
10028500	-0.723169967517467	-18.9221590435347
10058000	-0.70644681982167	-18.9949937664925
10087500	-0.68907803116266	-19.0891083466915
10117000	-0.673040945281873	-19.1806934952657
10146500	-0.655432060912717	-19.2626496975156
10176000	-0.644241259252263	-19.3821117520738
10205500	-0.629832874805352	-19.4944358224147
10235000	-0.616129192658279	-19.6256596845834
10264500	-0.604786968208794	-19.7281131975578
10294000	-0.594907055852957	-19.8565230739494
10323500	-0.584306628854856	-20.0034553597891
10353000	-0.575917280611414	-20.1096118573575
10382500	-0.56512498955002	-20.2522497341582
10412000	-0.558672820876605	-20.3837084342151
10441500	-0.550083997837726	-20.5129209977048
10471000	-0.543782752925715	-20.6378868299242
10500500	-0.537441698199453	-20.7768497158736
10530000	-0.527820618912861	-20.8848729268707
10559500	-0.528169151036079	-21.0229594444587
10589000	-0.521630101460729	-21.1485024693812
10618500	-0.516676971719853	-21.2902046451764
10648000	-0.516214028300602	-21.4159420822418
10677500	-0.51007964965235	-21.5502818440259
10707000	-0.508531718055456	-21.6574758849461
10736500	-0.503833668739867	-21.7832602344053
10766000	-0.497928405269932	-21.8930808279793
10795500	-0.49332899328549	-22.03537933448
10825000	-0.487497316382072	-22.1487076746261
10854500	-0.484630257786505	-22.2956519663638
10884000	-0.47774749837272	-22.4104392096121
10913500	-0.47596254008567	-22.5451874238329
10943000	-0.468492315702849	-22.6861548418312
10972500	-0.467247121690112	-22.8300671863174
11002000	-0.464033624245687	-22.9642246612655
11031500	-0.4593288370245	-23.1205935526674
11061000	-0.456502749436382	-23.2694207086174
11090500	-0.455722552063404	-23.4049952882741
11120000	-0.454667172529786	-23.5470461096234
11149500	-0.449025072248557	-23.7046340887341
11179000	-0.444481236537587	-23.8423041192395
11208500	-0.447141645252057	-23.9832972118385
11238000	-0.444018723829083	-24.1536373645574
11267500	-0.442016877539707	-24.3123246817327
11297000	-0.442553061086989	-24.4570579886337
11326500	-0.44177792322858	-24.6254760859493
11356000	-0.440165832802855	-24.7664206931526
11385500	-0.4422201442665	-24.9137916980699
11415000	-0.442837566428537	-25.0830091990999
11444500	-0.44328157970457	-25.2313435073758
11474000	-0.443227152954855	-25.3867908002362
11503500	-0.443745155668133	-25.550165266728
11533000	-0.445757313577505	-25.7012944676146
11562500	-0.449262451855979	-25.870929349643
11592000	-0.449542546443451	-26.0240746009262
11621500	-0.453334072251668	-26.1904077236034
11651000	-0.454091835928622	-26.3455160712437
11680500	-0.460257503525939	-26.5070899796924
11710000	-0.463669688414357	-26.6583565127713
11739500	-0.465143882207166	-26.836138432463
11769000	-0.470491945717702	-27.0071089396343
11798500	-0.474385940979554	-27.1708315274507
11828000	-0.482309635134104	-27.3223127508277
11857500	-0.48792265309736	-27.5281614253076
11887000	-0.496506739125188	-27.6781889773394
11916500	-0.502342759206287	-27.851421170435
11946000	-0.508242623544376	-28.0000487383967
11975500	-0.515693164711516	-28.1648260326879
12005000	-0.524581012112138	-28.2999094215197
12034500	-0.533602504143207	-28.4766198999284
12064000	-0.540090756463743	-28.6155186707682
12093500	-0.55326871117959	-28.7819641330895
12123000	-0.559898231548894	-28.9009444709889
12152500	-0.570811312778733	-29.0603469931389
12182000	-0.581112630436664	-29.2132158197565
12211500	-0.590153933946264	-29.3398072515021
12241000	-0.604575918444653	-29.476400629616
12270500	-0.614751024171479	-29.6023849151689
12300000	-0.619000706707775	-29.7257385844735
12329500	-0.632001949095375	-29.8740910628063
12359000	-0.639504365099286	-29.9524355955151
12388500	-0.651217051387707	-30.1161926242061
12418000	-0.658449597637627	-30.2125918210072
12447500	-0.665991389718871	-30.3438200477828
12477000	-0.67317143753992	-30.4664860412207
12506500	-0.684287371627037	-30.5825057298692
12536000	-0.692531737084292	-30.6979058437268
12565500	-0.701798393739279	-30.8236472052993
12595000	-0.705952202020944	-30.945883999749
12624500	-0.715015301547145	-31.0515975444054
12654000	-0.726401266186378	-31.1559001122926
12683500	-0.733649509876703	-31.2515350317002
12713000	-0.7414287829208	-31.3843284265514
12742500	-0.748003549376735	-31.4825584917164
12772000	-0.74650769238307	-31.591611180667
12801500	-0.762555277108715	-31.694165609949
12831000	-0.769554503713029	-31.7958928766129
12860500	-0.77153853750824	-31.9007657738046
12890000	-0.774850476826815	-31.9957465789871
12919500	-0.781052893554109	-32.1005585455291
12949000	-0.783269142247416	-32.1911139700433
12978500	-0.784696530802042	-32.3075169775901
